// random CAN data generated with cangen
(1739229594.465994) can0 0E9790B5#CA3F871A5A6EE75F
(1739229594.467052) can0 0D15F192#500B3766CB2DED7C
(1739229594.468105) can0 095656B9#3B9BA64D45BF5F01
(1739229594.469131) can0 15077A92#71536E3C6B408321
(1739229594.470186) can0 1EA91C0C#7073122C536C5475
(1739229594.471239) can0 069CED91#CE60984B0AF1E868
(1739229594.472293) can0 0A82DCC6#10303851A7566023
(1739229594.473346) can0 0F3E1FD7#4E442C295A5A6172
(1739229594.474400) can0 06A34DB8#25DE9F43A3EA3A2E
(1739229594.475454) can0 10670CEC#7AF24B3B8DA6BE03
(1739229594.476507) can0 005642D4#3083E30957E6451E
(1739229594.477561) can0 003DB12E#C274F976A7F17C04
(1739229594.478614) can0 1D2ADEFA#7BCB4F60E38C2352
(1739229594.479668) can0 1E8A9E3F#0D46573554E0910E
(1739229594.480721) can0 000DDEAA#1A620034C453A43A
(1739229594.481775) can0 15624AFD#AB4F9D3A92B43C06
(1739229594.482828) can0 1E4B3C07#722C2045A2E47457
(1739229594.483882) can0 01AB92AE#494C5E74F128A100
(1739229594.484935) can0 140CED08#019A013B16074144
(1739229594.485988) can0 0247D7AC#EDA6682B91F98C7F
(1739229594.487041) can0 06067E39#C1E9BE0BC17C7009
(1739229594.488095) can0 044C6490#F09AFC4B83F16900
(1739229594.489131) can0 08C95638#EA792709FEBCB960
(1739229594.490140) can0 1AECE31B#2918B2470B031116
(1739229594.491193) can0 097EC36F#D3F6BF272565114A
(1739229594.492246) can0 04231734#D041227DD1B4AE04
(1739229594.493300) can0 0A5FCBC6#D77D6D3B43E1CE49
(1739229594.494353) can0 01D4B069#8510191D8C2D2D3E
(1739229594.495407) can0 0275D95A#8EFD25718EC72E79
(1739229594.496460) can0 06B6E070#3AD56D737B6E9724
(1739229594.497513) can0 0643DA01#735374793D585630
(1739229594.498566) can0 0FB456C2#03B8C01D2DF3527C
(1739229594.499619) can0 101E4845#3B0E8A46176D7A05
(1739229594.500672) can0 10D80543#56F1764140852C4D
(1739229594.501725) can0 06E9084F#C6B4F54A137CEC74
(1739229594.502778) can0 10FA6D74#FACB180FE3BD0E72
(1739229594.503831) can0 15A92245#C0977859BA3B7C2D
(1739229594.504884) can0 1F780388#29484D7B3F4C954A
(1739229594.505938) can0 1DA53115#8321C31DCD49BB3B
(1739229594.506991) can0 16D3F8A3#F4017A04071F292F
(1739229594.508045) can0 1B6B671E#F5DBBD6A7A729D28
(1739229594.509098) can0 0BC1BF5B#B832725A7E2A5E46
(1739229594.510130) can0 0814B288#FD7A904AB938E80C
(1739229594.511183) can0 0D8F1F9F#4180681B102A5F4E
(1739229594.512236) can0 1ABBA4DF#90885102D6DE5419
(1739229594.513289) can0 0FA820F2#04F64B33D0AA6D28
(1739229594.514343) can0 01B6DED5#4A18F5689042E601
(1739229594.515396) can0 0F331A8F#D21B6D68BA8A337D
(1739229594.516449) can0 19C866CF#E74C12263DACF61A
(1739229594.517503) can0 1583B09C#8A45E65C31AE701F
(1739229594.518556) can0 04ACCFA4#A9AC5138278A2E0A
(1739229594.519609) can0 0D4A421E#046C1344DFBCA064
(1739229594.520662) can0 13A86C9C#8D1E284CDC37312F
(1739229594.521715) can0 0090A556#2C3EB7591DB8994A
(1739229594.522768) can0 0EEFCF66#0CE37234AD40EB4C
(1739229594.523821) can0 0844AE3C#FE031B04B2363700
(1739229594.524876) can0 10B2590C#D4E2D145FC4E2C69
(1739229594.525930) can0 12989B9C#63FD0435CE6A9951
(1739229594.526983) can0 0FCC2656#3264CD6EB6B7AB77
(1739229594.528036) can0 0AC2D294#CF14516440FD9154
(1739229594.529090) can0 0A3380C5#73E4FD08E9A9E30C
(1739229594.530130) can0 14620AEC#91264856EE15F750
(1739229594.531183) can0 1902C7CB#2E93F0697B341F1D
(1739229594.532237) can0 0833FFA8#8438810AA772D676
(1739229594.533290) can0 12CDB7C5#EA077179B355492B
(1739229594.534344) can0 1FB8F873#26B6B501B259642F
(1739229594.535397) can0 1FF02F25#320F6832863C3675
(1739229594.536451) can0 091C7E21#CEAA0065E9393B2A
(1739229594.537504) can0 1AB5E8EF#25D1CC141C9E0819
(1739229594.538557) can0 1261A0A5#B9A38F5FEBB2597D
(1739229594.539610) can0 06F39DE6#7E24C3495E975706
(1739229594.540662) can0 13D747CF#6B2F253EEFBD9F5C
(1739229594.541716) can0 04CE5DBD#36F727171D519046
(1739229594.542769) can0 01ED9238#DEF65B1FA1891151
(1739229594.543822) can0 18C404E0#A4AE29728B91824A
(1739229594.544875) can0 040D5A93#17A7E211B147384C
(1739229594.545928) can0 1371B445#3CD6D231E356A07E
(1739229594.546981) can0 08A7F0CB#5D54EF3AB201A163
(1739229594.548035) can0 12E32AB5#4C3DA515D7D26D78
(1739229594.549088) can0 0BEBC8D1#F2DD06689076FD57
(1739229594.550130) can0 09457BBC#D87BFA0E0E9BC021
(1739229594.551184) can0 0F9D131A#A7C3D14279CAE55F
(1739229594.552237) can0 0C3CD109#6521A047B0C10D77
(1739229594.553291) can0 12CD2227#9DB38D698EB86916
(1739229594.554344) can0 03DEABC8#7DB8510232679308
(1739229594.555397) can0 0E613D54#11135F46490E761A
(1739229594.556450) can0 1A998505#56C7D03985E4484C
(1739229594.557503) can0 1939DBE9#22B87822E2383807
(1739229594.558556) can0 1CDADD9B#D7E25B352F76DD1C
(1739229594.559609) can0 1548B072#A8AB47612154E404
(1739229594.560662) can0 0D462702#64278D0AF9CFDE13
(1739229594.561716) can0 0F06C210#7E3A2A3AA093B056
(1739229594.562769) can0 0EEC8C8A#870B674605B5501E
(1739229594.563822) can0 05FA4E3A#AE2D3419A368DE07
(1739229594.564875) can0 1C6406C8#77D9123D2021300A
(1739229594.565928) can0 04F76DFB#CB16742B31348F50
(1739229594.566981) can0 1F6D7C44#D09B0D6688FB5F0A
(1739229594.568035) can0 0BB660CA#B977471FAAB3D82C
(1739229594.569087) can0 12EE99AC#5455223C81963462
(1739229594.570130) can0 0FCC0FDB#C6056B5129427C43
(1739229594.571184) can0 14B063FC#C82CB13E8D69094E
(1739229594.572237) can0 088F33F5#D9EEB74D0BA43308
(1739229594.573290) can0 1F3FC796#637BA43C92AF9A4E
(1739229594.574344) can0 1D907C9B#9DC99E2241DDCE67
(1739229594.575397) can0 056EE53E#65D0021FB8B6E124
(1739229594.576451) can0 0F9F065F#603EFA2383CD5550
(1739229594.577504) can0 002E3A90#A5BA674353696336
(1739229594.578558) can0 0A8E3618#6F1B1E2F0DE1AA55
(1739229594.579611) can0 1766E9C2#1BB50C226136CD11
(1739229594.580664) can0 199B8043#F7C4D831283C3863
(1739229594.581717) can0 1D17C26C#F3288946F068E921
(1739229594.582770) can0 0B212BF9#E95C186FC957A16F
(1739229594.583823) can0 1354D004#7F24586E2CD3452C
(1739229594.584876) can0 01EF7F97#1AA1E80BC99CE44E
(1739229594.585929) can0 09BE5CD8#598657312F6DE76D
(1739229594.586982) can0 0EA01390#B88CF6608FABE111
(1739229594.588035) can0 1EF5E113#48C7246134664955
(1739229594.589088) can0 15594A66#61FDB26BA3816704
(1739229594.590130) can0 0B042B73#23E71923BF367426
(1739229594.591183) can0 1CD161D5#6767B53CB6FB4C58
(1739229594.592236) can0 00099DFD#D329CD19A924D61E
(1739229594.593290) can0 01F306ED#CD55EE449281EE0D
(1739229594.594343) can0 11945EB7#D125437811A6467C
(1739229594.595396) can0 1DDA31E3#68A5327A2C472F08
(1739229594.596449) can0 0CBECEAD#4002F16385CD8639
(1739229594.597503) can0 1AA63BDC#D01591723D5A7D1A
(1739229594.598556) can0 0C87E76B#E3F686518521A27B
(1739229594.599610) can0 01D14DA0#4A41E066E61E5567
(1739229594.600663) can0 0638CF43#BD6CE4510A066F0A
(1739229594.601716) can0 0CAD0602#92CEB54E716D2447
(1739229594.602768) can0 04FA01B8#8F6CBF2E4497F160
(1739229594.603822) can0 03D02662#7D73B23011EDDF25
(1739229594.604875) can0 11BEA7F4#34D24622E312231E
(1739229594.605928) can0 0E054E06#170421404BB85518
(1739229594.606981) can0 16349532#C4D2DF2C8CBA467C
(1739229594.608035) can0 0FBB62B7#A00E86075CD0D76E
(1739229594.609088) can0 0A38BCF4#0CF60D7440C75E40
(1739229594.610130) can0 05DADE79#AC43DF358A083F27
(1739229594.611183) can0 0D2FFD60#EF12187C47752379
(1739229594.612236) can0 179F036A#F218C568DA43D947
(1739229594.613290) can0 1EC370DB#AA1ABF2D69B09876
(1739229594.614343) can0 1FB5081F#0C418F11E6234B27
(1739229594.615396) can0 0594F531#01E94D031AF69149
(1739229594.616449) can0 03B80814#0737537132FAB209
(1739229594.617503) can0 1C0DC05F#39CC8767F6CC9236
(1739229594.618556) can0 18547AEB#F02E431797DB183E
(1739229594.619609) can0 072C4B48#E4EB7B61A3D12632
(1739229594.620662) can0 078B1288#5DCA56274F150668
(1739229594.621715) can0 0ECA1B12#BDC786543E281E64
(1739229594.622768) can0 07ED9059#27CB250C3041E34C
(1739229594.623822) can0 0FC6D433#023CE90ADB5BA27A
(1739229594.624875) can0 065F849D#22449E6AE79C310C
(1739229594.625928) can0 0DAAA883#53393370E8857F0F
(1739229594.626982) can0 173C9E9E#6741EB13EFBCD200
(1739229594.628036) can0 00EF98D0#C601F94F28895A68
(1739229594.629090) can0 178265C6#B27C4D0818B89D7F
(1739229594.630130) can0 159B415D#FAC7792FFCA31961
(1739229594.631184) can0 07C21300#82DA04175A6E7008
(1739229594.632238) can0 0FC8284F#94F5CE251736F75C
(1739229594.633292) can0 13E6508E#ED85BC2D3F011D69
(1739229594.634345) can0 00C991BE#215A837D413D0674
(1739229594.635399) can0 1B6BED99#BEDEE2436381A45E
(1739229594.636453) can0 079D8A81#41878D31B6BAD74E
(1739229594.637506) can0 171D1069#DF25CA681DFCC262
(1739229594.638559) can0 17EFCD59#AFBEB929E4FDBB32
(1739229594.639612) can0 004A5681#76243C21967A093B
(1739229594.640665) can0 1FE80E9A#D365D7569042836A
(1739229594.641718) can0 0101B296#D478993E121D8801
(1739229594.642771) can0 097220F0#23A1610EA6125727
(1739229594.643824) can0 06695708#B1F1474293981355
(1739229594.644877) can0 0F865847#70831143B4F29652
(1739229594.645930) can0 038C9588#09717D3E72D17916
(1739229594.646983) can0 023116EC#8AFB1A46B4580748
(1739229594.648037) can0 1108D1A2#F40B385D937ED130
(1739229594.649091) can0 13CBCDC0#4DD92775433D8B5A
(1739229594.650131) can0 0687CBA4#CE2F7275B961C77B
(1739229594.651191) can0 0191463A#683E5A758CC79E52
(1739229594.652244) can0 0C1488CA#FFF05B5660403811
(1739229594.653297) can0 0D9CA5DC#EF11CE3F84E1991F
(1739229594.654350) can0 14F3B882#F768370635D3E161
(1739229594.655405) can0 0A075115#3EC1BD35A556F324
(1739229594.656458) can0 1C9E43CA#C7564A59AFC77063
(1739229594.657512) can0 1318153C#B36D7B5B39C38B29
(1739229594.658566) can0 1B1F6DF0#553F842C2DCFC306
(1739229594.659619) can0 0BF0EC84#150D50607AA8EB7B
(1739229594.660672) can0 067C29C7#B9D8D74649D85D71
(1739229594.661725) can0 02438B80#F31E6968B116B866
(1739229594.662778) can0 14E2530C#BDA77D74B007143D
(1739229594.663832) can0 061A936D#994D1A02A019E27C
(1739229594.664885) can0 05B474F1#1B060E3797821903
(1739229594.665938) can0 07964826#31571541D643D738
(1739229594.666991) can0 0C899ECC#FB9AB31D9D9A2112
(1739229594.668045) can0 0FFA667B#37B0CB1050089D6D
(1739229594.669098) can0 198629B4#281EEB4BA547211A
(1739229594.670130) can0 0049F8E2#AC0ADC37BB54717A
(1739229594.671183) can0 1C35A15C#7334587E742D4941
(1739229594.672236) can0 0D9379A5#F3BF9B40684CB229
(1739229594.673289) can0 144B9057#FF127E5525F42F1E
(1739229594.674343) can0 115F9807#6CA6987BBF414A20
(1739229594.675397) can0 0E41B1A7#5D1B4D41DA475857
(1739229594.676451) can0 115B343F#8463E3680B9F6D18
(1739229594.677503) can0 0A327815#50026D35063A2136
(1739229594.678556) can0 1C5412B2#CB6867653EEAEC46
(1739229594.679610) can0 09F11B02#7F92ED3E6608D812
(1739229594.680663) can0 041262A7#618B371F1213B44A
(1739229594.681715) can0 1E83B762#BE2C6D7B85470C49
(1739229594.682769) can0 1FCCE4D7#63A600497807A809
(1739229594.683822) can0 097F313F#BA364C7D771A265F
(1739229594.684874) can0 07AF2564#C2CEAB6EE4C0BE5A
(1739229594.685928) can0 07F96723#6980ED5C41DC0B1C
(1739229594.686981) can0 1F51AEFE#A8B4484EC53FEF04
(1739229594.688034) can0 17BF4E09#BD2C7B7815425C3A
(1739229594.689087) can0 0DE08810#6F3FCF34E0AAC31F
(1739229594.690130) can0 14CD724E#715AC05E603DB15E
(1739229594.691184) can0 07A57AB4#19BDD222C1C8E87D
(1739229594.692237) can0 12598DC6#7B7456617FF55579
(1739229594.693291) can0 1B65D54B#52592361E39B5642
(1739229594.694344) can0 050DDCC3#918AA20A9DD2A23F
(1739229594.695397) can0 0433F73A#F6AF51525FA14E2E
(1739229594.696450) can0 1EF2B81E#19174B3AC9213C0B
(1739229594.697503) can0 1AFE9460#17C69C7971D68459
(1739229594.698557) can0 1FEDD425#21145C512F030052
(1739229594.699610) can0 1A4A163B#319C3C5F9E42CF06
(1739229594.700662) can0 1A0DC11B#7F0E0A34109D8F65
(1739229594.701715) can0 18BEFE7B#3389AF1B295A6208
(1739229594.702769) can0 16A7C73D#F916094EA4CEB869
(1739229594.703822) can0 0FFDBCBC#44EC6E49F727DC4A
(1739229594.704875) can0 1254589F#07C97C4E88B27E55
(1739229594.705928) can0 11F72B3D#41C0B0327E62D027
(1739229594.706981) can0 0045CC9C#6078A37198791B62
(1739229594.708034) can0 0B81EE65#C00CA24CAF3FB85B
(1739229594.709087) can0 0506C4D7#E5E08F2CD053142D
(1739229594.710130) can0 1706C806#20F7D94601F0500C
(1739229594.711183) can0 1DD60AA4#3CB8E70080FE5A40
(1739229594.712236) can0 0365A7B4#B7B6A619B3870A5C
(1739229594.713289) can0 0BC801DD#F47D4E30AC9E132A
(1739229594.714343) can0 1580D082#B13A4C40F08A8273
(1739229594.715396) can0 005CF879#5093A012F753FF41
(1739229594.716449) can0 15DBAB01#8DBE97243914B074
(1739229594.717502) can0 1DAC0D80#2A8BDD64998C5366
(1739229594.718555) can0 1FC78718#8F795F305999F532
(1739229594.719625) can0 1B7FC6C7#663E66553E7A855F
(1739229594.720693) can0 08941A98#6C066D4C5F715F26
(1739229594.721760) can0 14E50A99#1111434A9B294727
(1739229594.722824) can0 1540091A#C5B8A82D52E0ED40
(1739229594.723878) can0 114A90CD#A3BA7019475E3C71
(1739229594.724931) can0 1B5E2F7A#258BF16EF8988831
(1739229594.725985) can0 0EE0BA6A#9E834E0F482C2944
(1739229594.727038) can0 10E00E62#9F2E2A05D6EAC068
(1739229594.728092) can0 0590229B#1F3CD62200769E4D
(1739229594.729130) can0 0BE3AF34#37C39D228FEFFD7D
(1739229594.730184) can0 1ED9488D#FF891D7EF62D6453
(1739229594.731238) can0 1E5EC2CB#97A4B1066234D11F
(1739229594.732291) can0 04BE342A#30AF961B7345146A
(1739229594.733345) can0 0C055DC5#4AB8D67039FEBC17
(1739229594.734398) can0 0CF33E18#18492122DCB82D31
(1739229594.735451) can0 1E2F9C5F#92787F7D01441F20
(1739229594.736504) can0 0FB83557#FC32604C9FC76D2F
(1739229594.737556) can0 13E1619F#5E41405D3EF69734
(1739229594.738609) can0 1CA24C75#F963D0625E326E57
(1739229594.739663) can0 0A40C275#2D13B44E95F50B7A
(1739229594.740716) can0 083EB205#BA5B8D6D947F2978
(1739229594.741769) can0 1BA2DFFB#861EEC6B2B24DB7E
(1739229594.742822) can0 1B74145D#B052AA105CD3711A
(1739229594.743875) can0 058859D1#76B0AF5CA68B480B
(1739229594.744929) can0 1D45580A#8EEEA269BED4692D
(1739229594.745982) can0 0E7310E6#ED8AD267504DE92A
(1739229594.747035) can0 0E9254E7#44C08A174D804977
(1739229594.748088) can0 1E001C86#E3216C0BABC18954
(1739229594.749130) can0 129812C4#596E0E68A5255A37
(1739229594.750184) can0 0A064522#CE304F12D2380E06
(1739229594.751237) can0 04123AB8#D3E28D3A8D949B73
(1739229594.752290) can0 1C3BBA4C#CEC2303613B3875F
(1739229594.753344) can0 1B16DE78#2CD7A451C3053270
(1739229594.754397) can0 1588B1D4#FD302D5739B6E14C
(1739229594.755450) can0 00D13D7A#07897274C7A48436
(1739229594.756507) can0 0E3B1239#ED99E542B42F571E
(1739229594.757560) can0 19245F89#D4EE7731F8EFE135
(1739229594.758614) can0 106DDFD6#5A0B784FDC114E41
(1739229594.759667) can0 04F7A182#1E1E102235805C29
(1739229594.760720) can0 1C51C727#4163164C03B1AB3B
(1739229594.761773) can0 025FFFF9#F99D2870D7933976
(1739229594.762826) can0 15FB9486#4558640CA5566A2C
(1739229594.763879) can0 15834799#BD367B27D12D0F7E
(1739229594.764932) can0 05B54D5D#91E8035DCE5E3C55
(1739229594.765985) can0 12970396#0C26D51DD5E7AE49
(1739229594.767038) can0 091BA85E#4538100CC281940C
(1739229594.768091) can0 0772D812#CE97342596700C3E
(1739229594.769130) can0 1D54C80B#A577A235F07B840D
(1739229594.770183) can0 1EA2D9E7#27199A1A0F9A942F
(1739229594.771236) can0 07FF5A1C#4EE0EB3650FDAA7B
(1739229594.772289) can0 03AB0B1F#47E04B59499BD36B
(1739229594.773342) can0 19E49EF6#CE74476F8EF33778
(1739229594.774396) can0 064EF59C#67BCCA644C2AB31F
(1739229594.775450) can0 045E236D#C409804ADD12B77C
(1739229594.776504) can0 199A823C#5B0D177DE9388C1A
(1739229594.777557) can0 03496A11#B9B532662E719C26
(1739229594.778610) can0 0FDDEBD4#CB8DA56DFD08D14B
(1739229594.779663) can0 0DEA5C6A#D655FA2AA2807301
(1739229594.780716) can0 1B6ED85B#BD2F9D29C9990D1C
(1739229594.781769) can0 0B03726A#D9899C51177AF952
(1739229594.782822) can0 06AE6FBA#F99447355E5A452C
(1739229594.783875) can0 12820B03#EF332C0F2CCF8C1B
(1739229594.784928) can0 0AB9FE91#8B297B15948B5700
(1739229594.785981) can0 0A6D28DD#F94CD9195895D74A
(1739229594.787034) can0 07243BBB#35CF7373B3A2EE47
(1739229594.788087) can0 01B074A4#4639BD166C58212E
(1739229594.789130) can0 084CE5D3#1A259B4638E6C61B
(1739229594.790140) can0 141DEED0#858185340E3CC146
(1739229594.791194) can0 15916F72#E059F42FCC6B5E70
(1739229594.792247) can0 119F093B#4ACCF75AA5F5FA41
(1739229594.793301) can0 04988352#043CA6019E8A4277
(1739229594.794354) can0 10DDDDB0#074728148EBE6E06
(1739229594.795407) can0 0C6AACDD#9845E21E19E8E91B
(1739229594.796460) can0 0CC23871#766E4F491235C335
(1739229594.797513) can0 1799CDC9#31AA737047043729
(1739229594.798567) can0 1F88707D#D51E24328E3DF43F
(1739229594.799620) can0 0DA9C8E9#A804711AA8628F06
(1739229594.800673) can0 0970AF21#78F38E4E2DE4143B
(1739229594.801726) can0 1031EB30#EA6220040D3E096B
(1739229594.802779) can0 009056FC#256CBF55570A0146
(1739229594.803832) can0 028B4CA1#77EF577A5B46A747
(1739229594.804885) can0 19CDD740#28CD354B628DCF5B
(1739229594.805938) can0 003C95CE#057AA037FBD2B17A
(1739229594.806991) can0 1C267DE7#76B2622471410144
(1739229594.808044) can0 11E9B2FA#3F80FC5BA2EB7434
(1739229594.809098) can0 1B20B741#BCF0845B770A9966
(1739229594.810130) can0 1B14F4CF#A6B92E09200F0A01
(1739229594.811183) can0 01A45778#C7689F529802994F
(1739229594.812236) can0 1CB93BA5#F753D1628365B953
(1739229594.813289) can0 07C279B3#F3AA6163A8D17829
(1739229594.814342) can0 0DC3840A#95F7EC2520C1D023
(1739229594.815395) can0 156ACA66#D5CEBA5F488E066F
(1739229594.816448) can0 113A57C8#A364F71F4D08A726
(1739229594.817502) can0 0BEC2AC3#8AE21D7CC3BA094B
(1739229594.818555) can0 0FED6C34#8495070E023B0627
(1739229594.819608) can0 046257D6#C64C2849BF2B8B02
(1739229594.820661) can0 0AFB624E#95413D4465E5B90B
(1739229594.821714) can0 0C05716E#0D99E1452C4E595E
(1739229594.822767) can0 1B9E7406#B3D49A0224A22A41
(1739229594.823820) can0 0F57D989#664E5D2A174D8C24
(1739229594.824874) can0 18D0AB32#70D22018AC44794A
(1739229594.825927) can0 1CA16C52#D69C8B4D8113342A
(1739229594.826980) can0 0BA7FA9A#9FF4C55E24782B4A
(1739229594.828033) can0 124F02E7#621FB26AAF5A4946
(1739229594.829086) can0 1D58BDAA#978B9F3A33F05054
(1739229594.830130) can0 045EF8AC#6DE3013FF93C791D
(1739229594.831183) can0 06EA246B#BB45FD298F7EB661
(1739229594.832237) can0 12A409D0#29B702169C179827
(1739229594.833290) can0 10FD57FD#302BA1514FEC322A
(1739229594.834343) can0 1227FA21#B904F960B53A9054
(1739229594.835396) can0 16B44738#EBAFC919260DB16C
(1739229594.836449) can0 012D8BE5#3D1C6B76FCA93C3A
(1739229594.837502) can0 0B619F66#D71613429B9E0219
(1739229594.838555) can0 158D178B#BE196234FEBDB403
(1739229594.839608) can0 1BD6723A#68D7BA719549543E
(1739229594.840661) can0 1027626D#15D01956022D567D
(1739229594.841714) can0 0DA09F67#80F4033DBE725327
(1739229594.842767) can0 0F571DF6#51FEA72FE729563D
(1739229594.843820) can0 16EF3592#4E56A5001755F70E
(1739229594.844874) can0 012221E2#6F50CD12D159F06F
(1739229594.845927) can0 15B25C97#A7978149BC09BA09
(1739229594.846980) can0 026369BD#8C23AF4AFA252500
(1739229594.848033) can0 1CA013BA#F3C21076D13C3842
(1739229594.849086) can0 15A2B255#7EDA9D6B90569A76
(1739229594.850130) can0 19577053#B84C7427F82D5568
(1739229594.851185) can0 17ABB9E8#25AF9B370DFE6E3E
(1739229594.852238) can0 1501E6EB#8C4E3C658EF2727B
(1739229594.853292) can0 1C5559A9#826C9374DFF01A2B
(1739229594.854345) can0 19AB8390#15A2822B2D47C02B
(1739229594.855383) can0 08A2D8A8#F7C3A40C9C978D3E
(1739229594.856450) can0 18933279#8E205742432F0F08
(1739229594.857515) can0 024D3C35#4C8ABA64D052BE52
(1739229594.858584) can0 0272622F#069E5A41C315CF48
(1739229594.859651) can0 04AA9F01#5B50FD3641F06C34
(1739229594.860714) can0 1B44F591#AFC05430F93CE15B
(1739229594.861768) can0 039A2389#977A00681EEC7C13
(1739229594.862821) can0 02092197#8261021DAB3AB978
(1739229594.863874) can0 1D7C1425#2BBB57792DA74C6D
(1739229594.864928) can0 08970504#BC3E03134249CF18
(1739229594.865981) can0 14574C31#6417A63B390D7425
(1739229594.867034) can0 12E4E3CD#DD493954C82DCB67
(1739229594.868087) can0 1AF41310#1286867614B8854C
(1739229594.869130) can0 0DB265E0#42E8F8181A56E00D
(1739229594.870184) can0 16817BA3#4387A37D75A6DD44
(1739229594.871237) can0 0AEE6BE4#D47CE85824673275
(1739229594.872290) can0 06CFA8DD#5DA0821CBCE1325D
(1739229594.873343) can0 1A4C94FC#F4C18B1E3E43357A
(1739229594.874397) can0 1305CFA7#19D6071C6AFE8C73
(1739229594.875450) can0 005276D4#1DDB9E44263D9006
(1739229594.876504) can0 1921C017#4E27F6188A543642
(1739229594.877557) can0 1E95CD50#1B0BDB2B679E6F16
(1739229594.878610) can0 0660FB18#2C1ECF467924F60C
(1739229594.879663) can0 12E6B32C#0C848134BB0CEF25
(1739229594.880716) can0 00C70946#B0FF026BFE939223
(1739229594.881769) can0 05A4AFBC#946BF155D2107B7C
(1739229594.882822) can0 1AD716E0#7214C11C30B1FD18
(1739229594.883875) can0 1809F89C#6EA90D7724738937
(1739229594.884928) can0 123F3BDB#1579134A3E499153
(1739229594.885981) can0 05CC3A45#E9EF650A5B243018
(1739229594.887034) can0 0C5C776B#00B08763AA4B2631
(1739229594.888087) can0 0E92CBF5#517D1D62C556015D
(1739229594.889130) can0 05026A5C#69787E48F174D023
(1739229594.890183) can0 11F88ED5#962B657BFEF85158
(1739229594.891237) can0 17E79B91#DC342C3CAEF85443
(1739229594.892290) can0 1B7A2F8F#98E4D04142644619
(1739229594.893343) can0 17F54062#79FBA73CB4780736
(1739229594.894396) can0 10F2F192#15F4B1142222152D
(1739229594.895449) can0 087C64B6#F02FF166379B2877
(1739229594.896502) can0 1C0DADF4#356ABD2C218B8E01
(1739229594.897555) can0 143DD250#A0E11979213B1665
(1739229594.898608) can0 05641DFA#95ADAC0772B83347
(1739229594.899660) can0 026574BF#F117AF2CDC30B20F
(1739229594.900714) can0 0635E9B1#C7A6A75E725C170B
(1739229594.901767) can0 1E87E2AF#58428F364E914347
(1739229594.902819) can0 01DCDB5D#E7710932E7751409
(1739229594.903872) can0 1B233F9F#49B2FE296071BC45
(1739229594.904926) can0 112AB854#DBA3F13A75656E5A
(1739229594.905978) can0 1E3FDA76#92086E0366955F41
(1739229594.907031) can0 156875AE#86B67B1F9BFF1C6E
(1739229594.908085) can0 16F700CF#D688B9533CE13667
(1739229594.909139) can0 1C0D3BF0#D0A61D39D18EE36E
(1739229594.910192) can0 0340F463#901B837BC3A6921B
(1739229594.911245) can0 12F3253F#4105B9618A4D3A7A
(1739229594.912298) can0 1E0A81B1#F0E74020E28FC930
(1739229594.913351) can0 054E12FF#4DC31D22C901D362
(1739229594.914404) can0 0E6288E6#EC02413D13B4D10C
(1739229594.915457) can0 141EFA46#40BB6B0EEE57C347
(1739229594.916510) can0 0E8D5FBC#B795AB0C8060314B
(1739229594.917564) can0 0FECF522#650B14020717AD6A
(1739229594.918616) can0 1E09F4BD#340C0B79DD9F663E
(1739229594.919670) can0 0540D5F9#24481855AE468477
(1739229594.920723) can0 142464CB#873C59783E620773
(1739229594.921776) can0 0FB70B8E#C6614C2B7F67C054
(1739229594.922829) can0 09F15918#77E356696F4F0175
(1739229594.923882) can0 1ABAE8FA#77F6A46EBC121F17
(1739229594.924936) can0 1D8DEAC3#5D7F077DA8156054
(1739229594.925989) can0 0A5F9ED6#A4792651E9D0CB62
(1739229594.927043) can0 1222F6C5#60D9B37FA066776F
(1739229594.928096) can0 1D545745#82CEA06F05728B71
(1739229594.929130) can0 08016E4C#3FC3AA4D397E966A
(1739229594.930185) can0 06680E2A#3999EB125DC6AE3F
(1739229594.931238) can0 1DEC54D8#04FE0F47E5020838
(1739229594.932291) can0 10F3B716#9209C716AB645463
(1739229594.933344) can0 05B41E95#AA62B8602348AB4C
(1739229594.934397) can0 1AB56E04#A44B735B9A3E503B
(1739229594.935450) can0 11D480C0#67360139F7BD5738
(1739229594.936504) can0 06349668#3ED560239B377E09
(1739229594.937556) can0 09006751#03CC8355FB103209
(1739229594.938609) can0 1877CDF1#4823D8527DDFD278
(1739229594.939662) can0 0A033FF6#9591D93ABDA27D46
(1739229594.940716) can0 1499BE2F#BF9F4161F63B6959
(1739229594.941770) can0 1448848D#97F42D7FFA397920
(1739229594.942823) can0 0C508772#ADAB21108C434037
(1739229594.943876) can0 0FA4EC1D#42CAD57536A6F817
(1739229594.944929) can0 1C503440#46388B50DAF16B73
(1739229594.945982) can0 17A072DA#06B95F4241286D2C
(1739229594.947035) can0 0FF830D2#6E4F94087FFDCD4F
(1739229594.948088) can0 1976686D#C0B6943182C95125
(1739229594.949130) can0 02A87969#B1840C4ACBEC2978
(1739229594.950184) can0 1B7B58E6#A8C40F54607E0333
(1739229594.951237) can0 01F8FBA3#D782A9481F1E4514
(1739229594.952291) can0 1B623799#6407F27CB6127313
(1739229594.953344) can0 1BDB7193#D68E426963BE9423
(1739229594.954397) can0 131BB51F#F47AE738A5886A19
(1739229594.955450) can0 0B145B55#34AF3755EBC0F569
(1739229594.956502) can0 1E804D2F#0F22D82CF179552C
(1739229594.957556) can0 0AED7571#E152D03C5FC9E934
(1739229594.958608) can0 1ABB72F0#4EBB46561F807E66
(1739229594.959662) can0 000D3C73#B734EF78D1048B30
(1739229594.960715) can0 1837293E#9E8D6A1479C99A04
(1739229594.961768) can0 0B3AA79E#41896376504C444D
(1739229594.962821) can0 1F7FC5BD#DBC0C531B553364A
(1739229594.963874) can0 12F2D873#6E32A10D8BE27833
(1739229594.964931) can0 168796D6#8EE7BC207F5D606C
(1739229594.965984) can0 0FF21F7B#E342D14BB40C9841
(1739229594.967037) can0 19E7E066#1390516AC32E706E
(1739229594.968090) can0 063D5A57#84053F35A481402B
(1739229594.969130) can0 1B2723B6#7478FA4FF23C8701
(1739229594.970183) can0 01A5A3D6#E7B40710AA71767A
(1739229594.971236) can0 1230A8A7#25DE3E4848FFE00E
(1739229594.972289) can0 16CB7220#C385793389884405
(1739229594.973342) can0 040FBE70#804BF93264490A37
(1739229594.974396) can0 0E461225#F323EC45D37BAB44
(1739229594.975449) can0 01BEF4B1#C9BA737C61636865
(1739229594.976502) can0 0E1F5230#44DA654C44A63931
(1739229594.977555) can0 0FB75EE4#AABA4D0657368B1B
(1739229594.978608) can0 1E278DA7#01158B6CDB3BCA50
(1739229594.979661) can0 09680F4B#B838B20750B4C420
(1739229594.980714) can0 0AEF4C3E#8EDC57093769CC30
(1739229594.981767) can0 0565BDE8#3585883B5D470B79
(1739229594.982820) can0 1446BD30#55F7537220CD842C
(1739229594.983873) can0 198B45B9#C5B56376A1187E5F
(1739229594.984927) can0 10958F1E#EBC7A944943C6A25
(1739229594.985979) can0 15410AF1#9CBC68465EF7DD21
(1739229594.987033) can0 1AA96E52#CC0E8834A2D1436E
(1739229594.988086) can0 0BE31496#B16D3F644D8C9174
(1739229594.989130) can0 076E4AEE#58FB66024EA11C61
(1739229594.990183) can0 183886C9#A40ACF4B06DACE68
(1739229594.991237) can0 18FD3B19#E256BE1694B62672
(1739229594.992290) can0 09C9A451#CA14245CC93BAF2D
(1739229594.993343) can0 02D4EBAE#FAD16A301E330320
(1739229594.994396) can0 0F59B8CE#B317F609E4E86616
(1739229594.995449) can0 0ED7D16F#D1A68B1ACFB0105B
(1739229594.996502) can0 14420E04#C2B1CC6F6B6D7921
(1739229594.997555) can0 16200562#1420762A377C0156
(1739229594.998608) can0 0463D704#AB345916E8E9403A
(1739229594.999661) can0 18F56351#997FC71D41E5A73C
(1739229595.000715) can0 1A1204A0#62060076E5EF7608
(1739229595.001768) can0 02E0DEA6#7C41FD6EC746351F
(1739229595.002821) can0 1507953B#CDE5C618915B597B
(1739229595.003874) can0 02B6D104#7BD19B3B8B2DC42B
(1739229595.004927) can0 02BA0423#498AF50A3E45BA35
(1739229595.005980) can0 1920ED07#B95BCD3910EC4550
(1739229595.007033) can0 14319DD6#BD690F0ED29D1240
(1739229595.008086) can0 15AB0B41#1F6F2F04E7BD886A
(1739229595.009130) can0 0BAC8778#2346936892F2E100
(1739229595.010183) can0 05ED7161#75A988412B72A91E
(1739229595.011236) can0 029556A2#15AE9A7B8D78A914
(1739229595.012289) can0 0B0C4687#BB8C7B1E09BAA603
(1739229595.013342) can0 0A418D4E#F6218333D69F6D1C
(1739229595.014395) can0 059AE8DF#FBF2397651710958
(1739229595.015448) can0 115F166A#1EF7F3589BFBFE62
(1739229595.016501) can0 07195BA8#25E414525457CC1C
(1739229595.017554) can0 175F47B8#FB81462611C1DB2A
(1739229595.018607) can0 1771E58B#3C8DF11B30300B2F
(1739229595.019660) can0 01FAA372#B4149E6753769E17
(1739229595.020713) can0 02DC9604#15868B6DC81F2759
(1739229595.021766) can0 0186082F#B7DC2030DDCDC154
(1739229595.022819) can0 162F80BC#3E232D7B995A3D73
(1739229595.023872) can0 19D63AC6#8CB06E658F7CC026
(1739229595.024926) can0 1643DA9C#6B99094B8A6FFA1C
(1739229595.025979) can0 0E4D4BEE#D5AF685CA866EE75
(1739229595.027032) can0 114C4789#7E0B8223CD4A0348
(1739229595.028086) can0 0E189EDD#3653E13AC8CC496E
(1739229595.029130) can0 18F45FEE#C1385312045A3B0A
(1739229595.030183) can0 07FF901E#33DC4D54B96ED971
(1739229595.031236) can0 1F9E0671#37722A17CEF4645F
(1739229595.032290) can0 18C5263A#667AB07886D1850F
(1739229595.033343) can0 0D86F417#23FBDF6EC4F4B20A
(1739229595.034396) can0 00C44EB0#E935B66851A52170
(1739229595.035449) can0 0784CB40#8510FA7EBC3E2B3B
(1739229595.036502) can0 047F3ACA#735C476D92EE9317
(1739229595.037555) can0 1A6DA173#FCA3933E10FA153B
(1739229595.038608) can0 0270EC40#D942AC2C464DF775
(1739229595.039661) can0 10BAB909#C7A2A04508864A08
(1739229595.040715) can0 1AF6130D#E532A00D3B62985C
(1739229595.041769) can0 0CCF81C6#57393E6D73D4C273
(1739229595.042821) can0 0C347695#915F0326D94E736C
(1739229595.043874) can0 1BBA481B#A8538A33FC49535B
(1739229595.044927) can0 066D3CDF#59A24E34E57F0944
(1739229595.045980) can0 168EE230#996DD35B6B900343
(1739229595.047033) can0 11BA20ED#63A85220DEEC4A30
(1739229595.048087) can0 094E0F7F#D649C05ADB90DE6E
(1739229595.049130) can0 0464098F#1736315DB4D38A1B
(1739229595.050183) can0 1A5B56D5#20EFEB4D7C762B61
(1739229595.051237) can0 02A5DCDD#2D02E24861A9CB6E
(1739229595.052290) can0 1F3E3F19#F483B135B8E2095C
(1739229595.053343) can0 1301138C#89FAE50149420D02
(1739229595.054396) can0 1F746265#A442A05DF2959735
(1739229595.055449) can0 1AC7AC62#837F0D444B38E669
(1739229595.056502) can0 1ED12C47#B4619C1AE4A5B945
(1739229595.057555) can0 01D4BCB2#A182562C474E0C66
(1739229595.058609) can0 121FA991#2092A4551E98CC40
(1739229595.059662) can0 00FE3A6C#AF9B083A35CEFD1D
(1739229595.060715) can0 1C890E20#84F2631455BDE96B
(1739229595.061768) can0 1DB4849C#62CF097782BFCB34
(1739229595.062821) can0 0C802DFE#7B0E483676437D6A
(1739229595.063874) can0 088A10B6#07224969FF3D636C
(1739229595.064929) can0 0A975300#6C84BD08A380034A
(1739229595.065981) can0 002EE8F2#CE3085032700110E
(1739229595.067035) can0 0A15213D#165D5642DB61AD28
(1739229595.068088) can0 0FCEC721#C8192B447CE40355
(1739229595.069130) can0 15DB1568#59C34A769C76A82A
(1739229595.070184) can0 16A7AD86#C5FD48174B12B164
(1739229595.071237) can0 14A57BBB#E60BD253CF041579
(1739229595.072290) can0 008F3910#8290867131D41E70
(1739229595.073343) can0 155AF893#80BE067EACE26626
(1739229595.074397) can0 1FD83C09#37CF9066B304B00F
(1739229595.075451) can0 0C3B7A09#3722285120896D18
(1739229595.076504) can0 163EFAAC#290B5771EEB9F21B
(1739229595.077557) can0 044FFAD3#662C6C7B0417495E
(1739229595.078610) can0 0CFD5CAE#87F33A4BCD307422
(1739229595.079663) can0 0201412A#EF08160126F4BE18
(1739229595.080715) can0 0CA9B7C6#76B6BD77ECF10730
(1739229595.081769) can0 115ACA11#3132630CD2FDD903
(1739229595.082822) can0 0A6FCEE1#426BF20C548E6075
(1739229595.083874) can0 1A8EA312#D5634D42D54C6773
(1739229595.084928) can0 00F585BF#DE9F25620C1CF859
(1739229595.085981) can0 10A58A72#E719616E433E202B
(1739229595.087034) can0 09131392#9414A0446C49771C
(1739229595.088087) can0 0505CD81#670FF028D275E317
(1739229595.089130) can0 034EE485#166CED3559691E63
(1739229595.090183) can0 05C31552#40ADEE1748723464
(1739229595.091236) can0 1E820979#07659824BE28F25B
(1739229595.092289) can0 0E89FB65#182FF315F05A5568
(1739229595.093343) can0 1263F937#F9FD620032C64775
(1739229595.094396) can0 07C4878B#0CA1F15A072A9537
(1739229595.095449) can0 1B2BD460#CB26E75BE5C9BA19
(1739229595.096502) can0 1523F06C#3DB18C6CCDE31B08
(1739229595.097555) can0 00442EAF#D0C49F1561F8BB4C
(1739229595.098608) can0 1CBB781B#5192A55AC807AC75
(1739229595.099661) can0 149EEDED#D676F47DDE73992B
(1739229595.100714) can0 17BD5746#298CB7431F218843
(1739229595.101767) can0 1BF1C98F#A295392226862068
(1739229595.102821) can0 17E3F24D#0791C3303EB5137E
(1739229595.103874) can0 00394D3D#3E8A274338B3767E
(1739229595.104927) can0 1581136F#C911EC4A44546859
(1739229595.105980) can0 0D163D76#2AE617460F7B4F35
(1739229595.107033) can0 06D1075C#96D63B1B4C2CDC21
(1739229595.108087) can0 0EECEB29#4605801B1CF17B37
(1739229595.109141) can0 1BA8E38A#617D3B386D832112
(1739229595.110195) can0 1154EB52#4F6BDA6C44FA1510
(1739229595.111248) can0 1CEE5F31#95C297046D86CD53
(1739229595.112301) can0 00768050#248C89000F1C0776
(1739229595.113354) can0 08970676#727E6D5816ADCA26
(1739229595.114407) can0 06AABBB4#AFCBA6185437F269
(1739229595.115460) can0 05216EEC#1FDF274E1D49DE34
(1739229595.116513) can0 1E89C330#951C3E3B472FF67A
(1739229595.117567) can0 13D93E3F#F1230F42DE053216
(1739229595.118620) can0 15B56A8C#1A0FFC50240BB231
(1739229595.119673) can0 0D315BA8#A4F2A42C8588ED69
(1739229595.120726) can0 1F52DF16#F7DDF97DD4F3C756
(1739229595.121780) can0 0F68D95A#283DE87A6AB65F5B
(1739229595.122833) can0 03365FC7#78BD5E3B8E42E95B
(1739229595.123886) can0 193D7BD6#EEC3F56300C15634
(1739229595.124939) can0 000828EC#A27FA00AB08CFD4C
(1739229595.125993) can0 09FA6040#8FEEC12FCF6B251B
(1739229595.127048) can0 1ED8A95D#BFB14B2E64886356
(1739229595.128101) can0 19CED8A5#FFEF246256AC7218
(1739229595.129131) can0 1000DE83#8B5ADA3770BB6E69
(1739229595.130184) can0 01B2E9A7#33B60B4515AE1316
(1739229595.131238) can0 0BA0722C#49955E640C8C0D14
(1739229595.132292) can0 02686601#A36EC71334C9F50E
(1739229595.133345) can0 1DC81C6B#6ACEFD16AC86544A
(1739229595.134400) can0 19B15EF9#404A3B109A4A4A2E
(1739229595.135454) can0 0E081FFA#2C7343303CCAEA38
(1739229595.136507) can0 1B05ACAA#6CD33D3ACBB8AC68
(1739229595.137560) can0 162B1879#CA7C16798B6AF816
(1739229595.138613) can0 0C8EA0DD#6F55E5328A5A1D79
(1739229595.139666) can0 05014D33#F233E60215B5F730
(1739229595.140719) can0 0E7008A4#991D9904486B0376
(1739229595.141772) can0 0483B6B9#C58F39709200625A
(1739229595.142825) can0 189142C5#C6F5A132356F296E
(1739229595.143878) can0 07870BF9#31126A50A03D2705
(1739229595.144932) can0 11DB92A5#2B711B4AE0876215
(1739229595.145985) can0 0025DD3F#259123780DFBA545
(1739229595.147038) can0 1910A77B#CF3D297379CEE37F
(1739229595.148091) can0 01BD6047#48565409434BFA78
(1739229595.149131) can0 18B5CAD2#25F7E275B2A0DF2B
(1739229595.150184) can0 11D3255C#5944E47AA4D4C52E
(1739229595.151237) can0 02CADA71#FD4C54693DF25E33
(1739229595.152290) can0 18CE45B9#B603D86D03829823
(1739229595.153343) can0 1330464B#7B466906C9773A56
(1739229595.154397) can0 0159B581#7452F02DFB89A426
(1739229595.155450) can0 0680F321#19E5CB1F26FBBF70
(1739229595.156502) can0 1BE37B01#58C2F13F4B8CE368
(1739229595.157556) can0 0189760E#D36902191ACA0C5C
(1739229595.158609) can0 016D4488#1ACABF5A62206165
(1739229595.159662) can0 1A678FCB#EC9475338717445B
(1739229595.160715) can0 0647307E#48BA4805E05B2856
(1739229595.161768) can0 150D0522#B9941308DDA87C3F
(1739229595.162821) can0 086BF760#73DAE10093AC542D
(1739229595.163873) can0 0C047963#BE2012540EF3BD33
(1739229595.164927) can0 023EF12C#3FD66B158245AE61
(1739229595.165980) can0 08E37B27#60C9EC5B9B2A7A01
(1739229595.167033) can0 19A3764D#6244D037F3EC6B41
(1739229595.168086) can0 02870298#70BA5959C7566E5A
(1739229595.169130) can0 1E93CCB2#F8FEC67AE1202E35
(1739229595.170183) can0 03F4ED14#C48E2E15CEB5A368
(1739229595.171241) can0 1F39049C#42BF755B1670EC6D
(1739229595.172294) can0 1561607C#64C48250D0040076
(1739229595.173347) can0 14DE095A#C4BBEE7843DFE176
(1739229595.174401) can0 0232B5ED#2735F3440100F44A
(1739229595.175455) can0 15F0A8FC#5426326741D65F60
(1739229595.176507) can0 179EEE7E#7BA11530A19F4C3C
(1739229595.177560) can0 1919191A#C917B96903E41C74
(1739229595.178614) can0 1A85060D#611A400C749E764D
(1739229595.179667) can0 14F35CD4#14E7D30A6C9D3D48
(1739229595.180719) can0 0A217DB6#28D4C86E302C6C5D
(1739229595.181773) can0 12C53384#C4D8012E72EBE138
(1739229595.182826) can0 00B1A39A#41396343D7AF6409
(1739229595.183879) can0 16B1A86A#9B4241189B6B5302
(1739229595.184932) can0 0D9387AD#88F8731AC3A04647
(1739229595.185985) can0 188787AF#84A1645017C7782E
(1739229595.187038) can0 18E75DF0#0390036892688E5E
(1739229595.188091) can0 1533FD91#1DA91C015B804748
(1739229595.189130) can0 0950E195#2AAFA15BBD9A8754
(1739229595.190139) can0 16C78009#FF0B9510D1815B5F
(1739229595.191194) can0 1F051D75#B589B67AF955244E
(1739229595.192247) can0 1C7149A6#39BD7B4DBE2E267C
(1739229595.193300) can0 15533518#D3602D0EFF67893F
(1739229595.194354) can0 1EB7E4EF#3E09DF449AAACA57
(1739229595.195406) can0 010B508B#EB90727222A33E72
(1739229595.196459) can0 0851F14E#9A18FA6AA744A342
(1739229595.197513) can0 16CAB865#8A76E143AAD4A62A
(1739229595.198566) can0 155920F7#1C741559C77DC32B
(1739229595.199619) can0 1DA0A153#B1556662F12C6507
(1739229595.200672) can0 12283C10#BAD52D39F038FA17
(1739229595.201725) can0 1183BDE1#2FF33258A5C2B012
(1739229595.202778) can0 1FA813DA#D53CA454DE7F2C60
(1739229595.203831) can0 1BCE4298#EE71F709B2E0596E
(1739229595.204884) can0 1B57AA97#DD56AF48F0E93833
(1739229595.205937) can0 13225531#68A7BA09DB7AAB25
(1739229595.206990) can0 0560F854#B6980C127693A510
(1739229595.208043) can0 08043CFB#1B51D748000A8754
(1739229595.209097) can0 12AB11A5#1372305E1C7E9C2D
(1739229595.210130) can0 1E6E8F6C#6613D13BCDD30210
(1739229595.211183) can0 05D3BC5D#764FF96D87A93049
(1739229595.212236) can0 1DCDF54E#570D7D7FB79C6321
(1739229595.213289) can0 107EB7F3#3121255F8CD90776
(1739229595.214342) can0 10AB37D2#CA63F33A7A4BFF7F
(1739229595.215395) can0 1F051884#610E4B5658A2AE48
(1739229595.216448) can0 123E0274#93636D49C0496952
(1739229595.217501) can0 17E97D4F#E75BCE2E77E27564
(1739229595.218554) can0 088F10C5#E298D25692334D2D
(1739229595.219608) can0 1D161AC6#87AA7D29A5A57D0B
(1739229595.220661) can0 0AB298E2#F339EC270BB94E47
(1739229595.221713) can0 1AB56CB0#50F6BF2D81084835
(1739229595.222766) can0 03E61637#9EEB8D4BD815C534
(1739229595.223820) can0 0549B2EE#92A30C7C0A37EA13
(1739229595.224873) can0 1B518C7B#64DBB70CD49ADD4E
(1739229595.225926) can0 1B50D7F5#E8F3BC0B35A92825
(1739229595.226979) can0 03FF7A4D#5CF6FA3DC80C966E
(1739229595.228032) can0 1668C40E#AB73E415AF68641D
(1739229595.229085) can0 1ADEA685#7184737E91013774
(1739229595.230130) can0 082BDA17#379F893B18ACB41D
(1739229595.231183) can0 13A97FBD#19383C260BE6A045
(1739229595.232236) can0 1AF838C8#C9A4F1205CDC6073
(1739229595.233289) can0 1040414A#01BBD764FAC7EE3E
(1739229595.234342) can0 05055722#EF6D214A8C6BFB3A
(1739229595.235395) can0 18EF8E2C#6AFA7225F046B347
(1739229595.236449) can0 07CD2900#60D2C300D83A7053
(1739229595.237502) can0 0CF5D236#AD4CC32434316B11
(1739229595.238555) can0 1B8BDEFE#BB102C1BE0A44F27
(1739229595.239608) can0 18F047AE#40B70A765129C325
(1739229595.240662) can0 0D27493F#5891367E88C84C61
(1739229595.241715) can0 0ADBF558#1511E011A1008907
(1739229595.242768) can0 107CDB63#DD49D86C6BA57A28
(1739229595.243821) can0 03DDB7BF#278B187D6C60520D
(1739229595.244874) can0 02CC7FBA#4AE21D425BCE7357
(1739229595.245927) can0 1DC7EB46#76700D1BC6C8E67C
(1739229595.246980) can0 057B3237#7799DA42269BAA7D
(1739229595.248034) can0 18EB6D0F#AD6BD00FD3E76D22
(1739229595.249086) can0 0A569E44#AB4A5C4B8FF8993D
(1739229595.250129) can0 11A64324#59924C24CFAFA433
(1739229595.251183) can0 17696C75#99DB73712741DB31
(1739229595.252237) can0 18B634FD#F1D04F5C3C52BB43
(1739229595.253290) can0 003F359E#54ACCC0C1A9C9330
(1739229595.254343) can0 08B9DB09#1464AA304127AC2D
(1739229595.255396) can0 160C3B75#CEE376138B09CA6F
(1739229595.256449) can0 0D8009D1#14CF3E31027AD70A
(1739229595.257502) can0 0A66D297#4B01BA167913B24D
(1739229595.258555) can0 08116DBD#5B6EA54F267F825D
(1739229595.259608) can0 0A7F5590#9F0CFC19D1C9DE28
(1739229595.260661) can0 08194E1F#C34FA20B2B5C2B4D
(1739229595.261714) can0 1BBDFDEF#38BC0B23C4379F3E
(1739229595.262767) can0 0D993F16#35F1C11BB508EF1A
(1739229595.263820) can0 11549153#D326011C09B5BB27
(1739229595.264873) can0 01E82D6D#DD01BB441D196658
(1739229595.265926) can0 0F9454AE#523DC77AEBFCDC6B
(1739229595.266980) can0 1F5E5E3A#2347470800CC1B1D
(1739229595.268033) can0 0A35D83C#BA19AE124BCDD533
(1739229595.269086) can0 17E7EBB5#7787BF1AA63B7B03
(1739229595.270139) can0 156A6ADB#08DD3E454548771D
(1739229595.271193) can0 1E4934AC#272B582D08981929
(1739229595.272246) can0 0B7490D7#162916494054254C
(1739229595.273299) can0 0A13C89B#2D68AF167545E767
(1739229595.274353) can0 0502D150#80F90328496CE803
(1739229595.275408) can0 0CBE865A#ED26EC69266EA348
(1739229595.276461) can0 05249F77#9B7B805978AB6A43
(1739229595.277514) can0 11019C63#D5D9DE389CF2B14B
(1739229595.278567) can0 0E1D6863#11B21423560C605E
(1739229595.279620) can0 01F335AE#C69DFC5ACE931F79
(1739229595.280673) can0 056E7155#A1086770D6705E3E
(1739229595.281726) can0 02E5B99A#4E3DB02EFD9BB66B
(1739229595.282780) can0 0BFF51A3#25CE243A14C5CC34
(1739229595.283833) can0 1824A5E3#C1963804412D7C4B
(1739229595.284886) can0 000BEB59#11683B69C1268073
(1739229595.285939) can0 03F457A2#6BEEF975AE4D6C5D
(1739229595.286992) can0 0C97C5C8#E38D1E5B49C9EC36
(1739229595.288045) can0 10027140#462A202C1FA3CB6F
(1739229595.289098) can0 1BB463DC#A9923D1A3055E012
(1739229595.290151) can0 1A147033#57C8303CF7F2DC6D
(1739229595.291204) can0 13340401#AC399F6198FB435E
(1739229595.292258) can0 119274D7#47F38424E638F40C
(1739229595.293311) can0 1D4910D4#EA4484100C071947
(1739229595.294364) can0 1215D5E8#CDEAA848CD9D514B
(1739229595.295417) can0 1D920329#26D6B468DE058D34
(1739229595.296470) can0 111229EA#C82DA90C4AF4862A
(1739229595.297522) can0 0E7E7798#90F340792D82A505
(1739229595.298575) can0 056B40E2#D164432973ACC531
(1739229595.299628) can0 1536E401#ADC8F7241C3F034C
(1739229595.300681) can0 08173931#E0380C7F73073408
(1739229595.301735) can0 15F42C28#E13C40522041D369
(1739229595.302787) can0 143827C1#B8B1D2636734580E
(1739229595.303840) can0 012C60A7#8DC21B615179DC1E
(1739229595.304893) can0 084567B3#759831131E648567
(1739229595.305946) can0 13970580#9F9BC310453A3A50
(1739229595.306999) can0 08240B5F#89C5D5010D68E35C
(1739229595.308053) can0 12AAFFA9#223D54509E5B2456
(1739229595.309106) can0 185081D6#047EBF556FC0677F
(1739229595.310130) can0 0A162E49#0562F64A1C895F24
(1739229595.311184) can0 16196D65#369B0D53FDC16B23
(1739229595.312237) can0 1E4D74D8#5FC70149DEFEAB75
(1739229595.313291) can0 0820B5F8#20EF391D97B07E59
(1739229595.314344) can0 1678EA5F#C74F667E24739A3A
(1739229595.315397) can0 155563B0#7BB7AB26990BCC4D
(1739229595.316450) can0 1CDAC7CF#FBBC421A38A78F5E
(1739229595.317503) can0 0D150214#5AC86642C26C6560
(1739229595.318557) can0 09F86A21#03C81115E4A9B930
(1739229595.319610) can0 001CC5BF#D949626DE8277906
(1739229595.320663) can0 1F84862E#22787877ED896F51
(1739229595.321716) can0 03E40F4B#87E5914D23257D24
(1739229595.322769) can0 074FD148#605ADF2B82EC7E6D
(1739229595.323822) can0 1CFBD026#58100074A2DBB80A
(1739229595.324875) can0 167A80BD#B8FA784A6A2B1F09
(1739229595.325928) can0 1114F3E1#685ECE3FE5E2CA2F
(1739229595.326981) can0 1EE0FF7B#3726A91CE09F0D4A
(1739229595.328035) can0 1D70A6B3#4B28BE493B68740C
(1739229595.329090) can0 1DD61375#6D92B6533E308621
(1739229595.330144) can0 0E8FBD59#2C58D333187AE80E
(1739229595.331197) can0 1508E541#5BDE57133AF26006
(1739229595.332250) can0 06786F2E#A6ED3B17C2D7F253
(1739229595.333303) can0 0AF59452#EEBE8B3E2232D27F
(1739229595.334356) can0 187480D4#148F875B7A42D273
(1739229595.335409) can0 032D5C77#D20F0252323D4B3E
(1739229595.336462) can0 0C4C87E1#B30317039B9B197E
(1739229595.337515) can0 1C176AC6#2E03F801D2C1C21A
(1739229595.338568) can0 06250AA6#E2A9685F1EEA8064
(1739229595.339621) can0 129972E1#57BD3E1D8B7C3738
(1739229595.340674) can0 141FA320#B17ACE0BB7D40A6C
(1739229595.341727) can0 03081D38#F25FD70012B3627F
(1739229595.342780) can0 09690F72#21CF4F47B8A09E16
(1739229595.343833) can0 1D5BE734#73634532A65F2A55
(1739229595.344886) can0 1D2E1956#47E4B90ABBEEB130
(1739229595.345939) can0 11005BD1#BE40E76D8DFEB302
(1739229595.346992) can0 0F4B9903#9FC8335A4002CB05
(1739229595.348045) can0 0D65349E#65334B766F05C307
(1739229595.349098) can0 0827F671#0C3E705C51AF2B67
(1739229595.350130) can0 0CA8E08F#EDB0094FA86C6A04
(1739229595.351183) can0 04E05D1A#0D54296359E73810
(1739229595.352236) can0 10EB31D1#457131064C471011
(1739229595.353289) can0 104DE4E4#B8809A2F6D166058
(1739229595.354342) can0 06EC859C#EC67F62CE079A50A
(1739229595.355395) can0 1C16E543#4381242A275E5F15
(1739229595.356448) can0 0CC8D3FE#14DD241BE69E4603
(1739229595.357502) can0 0F7CD28B#1776704A85677A5D
(1739229595.358555) can0 1547D4CB#B6AAD577EB9AC553
(1739229595.359608) can0 1D0ADA3A#27A1FD3FF7D83530
(1739229595.360661) can0 0436898B#B681A66CE4893F7F
(1739229595.361714) can0 08A0F634#D0DE8651F2DD6862
(1739229595.362767) can0 18D9DD8D#A1107222374F9A68
(1739229595.363820) can0 09EA24D9#85F5BF72EFCF3418
(1739229595.364873) can0 024A3B46#227BAC59DC372B45
(1739229595.365926) can0 0CEFB526#6560C3151FB94F6F
(1739229595.366979) can0 024F134E#63348C023396740A
(1739229595.368032) can0 0595B234#EE0609724A0CE554
(1739229595.369086) can0 031019B9#B9DB506700B7BA4C
(1739229595.370130) can0 16D5B4A4#F4B55B642758B80C
(1739229595.371183) can0 070B8D9B#7F3F9248DDD95E79
(1739229595.372236) can0 064B1780#B3353331ADB8E54A
(1739229595.373289) can0 08B3F572#41130D2A4FC9576D
(1739229595.374343) can0 114E44A9#1A38F733D4BE1760
(1739229595.375396) can0 09831499#61734116F639C439
(1739229595.376450) can0 0EAE4C75#872831035B9A874F
(1739229595.377504) can0 1DFE0594#D53B8005BECE1352
(1739229595.378559) can0 08729BC7#09EE150BACD51C44
(1739229595.379614) can0 1D57A811#C307266E66B16D2B
(1739229595.380667) can0 0A125F12#67BCFB245A67C90F
(1739229595.381720) can0 16CAB739#034A070CD9A65B58
(1739229595.382773) can0 10299117#836152728DDC8E09
(1739229595.383827) can0 1B0F49C4#F556063BCEEF9B33
(1739229595.384880) can0 08671313#9E9B546CE8279367
(1739229595.385933) can0 087ED1E8#37B0D735499BD47D
(1739229595.386985) can0 02430BDE#ACFC8544D1C30501
(1739229595.388038) can0 11CAA63A#40028442A6FF8506
(1739229595.389091) can0 03DE74F8#079EF64AB0ED9B11
(1739229595.390130) can0 07FB4AA5#19464E2873F5C17F
(1739229595.391183) can0 1368FC0B#2BA56052DAB1BD24
(1739229595.392236) can0 03326365#645C2B09DDFBC430
(1739229595.393290) can0 1B8E0A3E#7BED5439605D1723
(1739229595.394343) can0 051CE6CB#4037643455B41D5E
(1739229595.395396) can0 18B8D699#534ACB1CF44F724A
(1739229595.396448) can0 004BFE82#3B1C4A652B004A00
(1739229595.397501) can0 1E2099CB#1A288D67D8FCCF44
(1739229595.398554) can0 1F265D9C#54CE573918FF5307
(1739229595.399608) can0 05AC5D43#4C43365D209D4A52
(1739229595.400660) can0 17484AF3#F18D314539E3987A
(1739229595.401714) can0 170A4066#FC899A586488F94C
(1739229595.402767) can0 1BC7F240#61EDCC7BC8E42456
(1739229595.403820) can0 0C8CEE1E#A0F75A7744D2790F
(1739229595.404873) can0 0FA44B7E#6BDE777C8409DE43
(1739229595.405926) can0 0DC1FFD4#05B53035D753A960
(1739229595.406979) can0 18344FC8#87B37C551370F345
(1739229595.408032) can0 187E4FF3#524D9D732D98802D
(1739229595.409086) can0 1D4E4CCB#EFAAC3128166D866
(1739229595.410130) can0 04A24BE4#32087038CDA90E44
(1739229595.411184) can0 16ECE904#2553B86FBF374009
(1739229595.412237) can0 1185CC3D#8B93C226BBC1DA61
(1739229595.413290) can0 1E7F54A1#CB858A021DAFA75D
(1739229595.414344) can0 14A43969#E973170FBDA60255
(1739229595.415398) can0 041E0BAD#68BFBB3E28857A51
(1739229595.416451) can0 07FC1531#3CBF7D4C2D3AAB06
(1739229595.417504) can0 08A56909#040FB224B4ED275C
(1739229595.418557) can0 0E98D91C#F75E307D073BC54F
(1739229595.419610) can0 1C197149#C3AB7E1AF6E58862
(1739229595.420664) can0 02F1D7CA#A7F7203F28EEF81A
(1739229595.421717) can0 07008197#ABE00D364D41B10A
(1739229595.422770) can0 1040B956#E8AC9327D8D47331
(1739229595.423824) can0 121B7B12#89011366A35AFE33
(1739229595.424878) can0 0FC32A2F#F23AB77A8DCE1543
(1739229595.425931) can0 04C5D0EC#A046D51EF58DD101
(1739229595.426985) can0 16405614#D15BD106314D4F4E
(1739229595.428039) can0 1CEB9042#DAC4764F355C0173
(1739229595.429093) can0 19137DF6#F69D0F5E2CBB3170
(1739229595.430130) can0 08D8B8FD#3F0F291AEF66B00A
(1739229595.431140) can0 0B619EF3#09E71A3D965ED149
(1739229595.432194) can0 065A8D1B#A1681B24413FDF7F
(1739229595.433247) can0 110BCE68#F7215C1429EC7227
(1739229595.434300) can0 027FA340#099D7766B2ED850D
(1739229595.435353) can0 167DFDE4#38C73A16A5283D08
(1739229595.436406) can0 1993CC71#2498001B456F1227
(1739229595.437459) can0 1B655A66#39EE407116CBE32D
(1739229595.438512) can0 09B4A797#7B7E2C4EF18F5A7D
(1739229595.439565) can0 1CB603CC#71FC3F07E72D6A5B
(1739229595.440618) can0 0CE7BEF8#6FB51810273D9375
(1739229595.441672) can0 179825E8#62547A7B3024AE32
(1739229595.442725) can0 0169847E#7EE1D401D18CC956
(1739229595.443779) can0 0148C3C0#E6AFE012C9AE256B
(1739229595.444831) can0 08BBAFE9#27536055D24B9D51
(1739229595.445884) can0 16419D9C#0B51DE4B0B13D867
(1739229595.446937) can0 1E7EC641#7C1D72052FABD802
(1739229595.447990) can0 05913586#E277D74068991974
(1739229595.449043) can0 1375009C#791F8C4AE3174642
(1739229595.450096) can0 10CF908D#4523424755148649
(1739229595.451130) can0 0C39BE75#3DE22934C4C99E59
(1739229595.452183) can0 01CCFB9C#2508C22B261E1955
(1739229595.453236) can0 147B1FCC#A48C2B6DA4FFED56
(1739229595.454289) can0 0B44AC9E#6450742E8BAFCE69
(1739229595.455342) can0 166A5B67#4D003017B2022F3F
(1739229595.456395) can0 0807A739#E99D710DBD530D0B
(1739229595.457448) can0 0FDFBA44#2A64F00B39717F10
(1739229595.458501) can0 12B86574#B09981311BE95651
(1739229595.459555) can0 06D1FEDC#4D9AF6049408E31B
(1739229595.460608) can0 091816C0#DA2AC655D92B2563
(1739229595.461661) can0 129E2B15#4FE9FF01160E4F17
(1739229595.462714) can0 0C3CF4D9#EBE4CC233C161143
(1739229595.463767) can0 015612FF#B8044878E0A23C30
(1739229595.464820) can0 184412A4#56B18C2344F3B05E
(1739229595.465873) can0 0212C22F#BD0CF73991F3E075
(1739229595.466926) can0 0141C4E1#F6B3FE217B915203
(1739229595.467980) can0 0C4F189E#3B6EDE71A5F5420F
(1739229595.469033) can0 1CCE89D7#AFD39644568FC440
(1739229595.470086) can0 0E2572F2#8BD2680BA329BB45
(1739229595.471139) can0 0A087B86#4BE980147D54811B
(1739229595.472192) can0 0D2DA75F#60141F67CD3D811D
(1739229595.473245) can0 047CB575#39095C13B8224E41
(1739229595.474298) can0 078DCBB1#391CB21470279639
(1739229595.475351) can0 17CA6E91#DD2EF66CC6D8225D
(1739229595.476404) can0 167B61D5#0CF1082F83E51917
(1739229595.477457) can0 0C5C5567#EDB54A307A991839
(1739229595.478510) can0 0FAEE6E2#8BCE993CB507F72A
(1739229595.479563) can0 1EF1DC87#6258685964DB8D6F
(1739229595.480616) can0 1FB66BDD#54CB8D47EFADF67A
(1739229595.481669) can0 05719580#DA4696513B97770F
(1739229595.482723) can0 00F2E9FE#39EEC33E9BAB9676
(1739229595.483779) can0 1E7427CB#AEA34043D5B4F209
(1739229595.484831) can0 1FC24A83#606FCE0A0ED1A41E
(1739229595.485884) can0 195871F4#F1DD9802EBFF9A0B
(1739229595.486938) can0 167B4ABA#C73F1459F7F0A33A
(1739229595.487990) can0 0D95303E#2E957025E4A6EE6A
(1739229595.489044) can0 06ADC9B8#107C1F756F758827
(1739229595.490097) can0 11A4D16D#97581154D1CDF000
(1739229595.491130) can0 0132ACD1#75C4C77325997E48
(1739229595.492184) can0 1C295AC0#F5593959FFDF141A
(1739229595.493237) can0 0BA0F1FB#F3432C5A38CED858
(1739229595.494290) can0 02379D97#BE6BA078E671191C
(1739229595.495343) can0 0C2A526C#42B6625846E1E726
(1739229595.496397) can0 0ACF237A#3628BB7138BF8029
(1739229595.497450) can0 166A2365#F0723668FFFE9402
(1739229595.498503) can0 110E145C#2EA3CB752D940528
(1739229595.499556) can0 1BFCBB40#E66C793C3D10251D
(1739229595.500609) can0 038530AF#533E1E2ED4683671
(1739229595.501662) can0 0475FE80#24EB500F492DFE64
(1739229595.502715) can0 0CF497A5#E5457A6B3F87373E
(1739229595.503768) can0 070977A4#E0371B5732CB6318
(1739229595.504821) can0 1FE245DC#77D55239F1360411
(1739229595.505874) can0 1BFBB7C2#E3277D2533ED6669
(1739229595.506927) can0 02E39909#5D4B4C306915225B
(1739229595.507981) can0 0C645841#C26EB64659885843
(1739229595.509034) can0 0EF95740#1E83C417882B2439
(1739229595.510087) can0 16FEEB6D#5E3EC1536E989D75
(1739229595.511141) can0 1423FBAA#0D6F4637C2D6BB23
(1739229595.512194) can0 055A647E#8D6DBC1BE6C10C33
(1739229595.513248) can0 0A5891C8#3205B148CB07871E
(1739229595.514301) can0 08901907#D67CBA0FAC3FA275
(1739229595.515354) can0 00F3E439#B2C29C2F2315F52E
(1739229595.516407) can0 11F81B2A#757A986B073D7254
(1739229595.517460) can0 1B5F085D#7E137C4E6488BE04
(1739229595.518513) can0 16811DC6#BF6BE05A27F7744B
(1739229595.519566) can0 19D9A620#FFC2D969457A3963
(1739229595.520619) can0 12FDD1A8#6CAED820A4B8FA36
(1739229595.521672) can0 089B6A16#16AAFC74B127416E
(1739229595.522725) can0 0C5740D8#940E573A3F95FD09
(1739229595.523778) can0 1F6402BF#5CA0AF64719AAE52
(1739229595.524830) can0 1DEB0A8A#63B93F4D48176962
(1739229595.525884) can0 138D4A36#9D9D334EFAD90512
(1739229595.526937) can0 02825F5A#C7B82B606F549E7D
(1739229595.527990) can0 16F49C61#25C18A5BED671A4C
(1739229595.529044) can0 1BB324C5#EBDE0B32ACD3FA26
(1739229595.530098) can0 07281BEC#0B85E54BAB96D410
(1739229595.531130) can0 0A619632#B356E31E1745AD31
(1739229595.532184) can0 015C4ED6#CAC07E672DEFA926
(1739229595.533237) can0 0F9D7687#A201D653C2FD0061
(1739229595.534290) can0 199B0BC6#61043A731E9EB045
(1739229595.535343) can0 0C49A638#EC0E25318257F012
(1739229595.536396) can0 0EB2BD80#2259B2641FF52361
(1739229595.537450) can0 00B8977A#7CB83447E6AD4F41
(1739229595.538504) can0 1E56EBEA#DD54297E0B6FDA1C
(1739229595.539557) can0 0A7153D7#A379DC39F74DE64E
(1739229595.540610) can0 116C2784#8F95044102D3CB1A
(1739229595.541663) can0 0240BE2F#C12B662BB629AF39
(1739229595.542716) can0 13EE0347#977AC24C80EA2D21
(1739229595.543769) can0 1A97F274#1FF15F5C22EC0375
(1739229595.544822) can0 1B98F036#E5FCFA7584F03D68
(1739229595.545875) can0 01498E55#1DA3446270FF6219
(1739229595.546928) can0 1439E5D7#9D60F7309258157E
(1739229595.547982) can0 155DDAF6#18F8AF110F114A45
(1739229595.549035) can0 16AD88DC#02E40670EC657343
(1739229595.550088) can0 1387F7E8#D937781A8FDF4F7D
(1739229595.551130) can0 026E45DF#5D5FE46B1F75543E
(1739229595.552183) can0 1D3A18E1#8D1D254EE0A0BA69
(1739229595.553236) can0 16E94297#D4201362781B7D36
(1739229595.554289) can0 18172D17#4813AB1C970CDD12
(1739229595.555342) can0 0D1B193A#7F0344387C09D808
(1739229595.556395) can0 155909BE#D4918D199AAC1C6B
(1739229595.557449) can0 0EBC092E#AB77C70D370D141C
(1739229595.558502) can0 0CD161C0#A15225634F05C42D
(1739229595.559555) can0 121B72CF#7DDBD27951E9CA1D
(1739229595.560608) can0 158ED8BC#65D35A2D2B214338
(1739229595.561661) can0 12DEB84B#4419C92F88802724
(1739229595.562715) can0 11332D6A#2632034D159E4C72
(1739229595.563767) can0 1AEDCE4B#BD74EC23E9BE5F54
(1739229595.564820) can0 116AE9C3#D5A1031C32D20A71
(1739229595.565873) can0 0447F65A#0FBB1E09B1D54E29
(1739229595.566927) can0 0D1FFFD6#CDC4775E8567DC42
(1739229595.567980) can0 183CAC70#FBCD334D30DFA350
(1739229595.569033) can0 1450B9A8#BB2F053AD131C933
(1739229595.570086) can0 0214BEF7#8BA2206C4E0D9C2D
(1739229595.571130) can0 1FDFA849#477BAF61B4E0F65A
(1739229595.572183) can0 1822C974#92338E54F8F9BF0A
(1739229595.573236) can0 1C4A49FC#FD60C1051E2CC357
(1739229595.574290) can0 0E96E812#482FAF20DCA0AF7B
(1739229595.575343) can0 02F6A6FB#0B191A72B142B317
(1739229595.576396) can0 1401792D#650F6256C0FDD120
(1739229595.577450) can0 1D504EDE#3B0F82438DC2497F
(1739229595.578502) can0 002CB663#ACBBBE1B88907D4C
(1739229595.579556) can0 10D09593#54750F1043C08206
(1739229595.580610) can0 0499C764#4B342432CE62A372
(1739229595.581663) can0 1235D4B3#94DC037215DE5254
(1739229595.582716) can0 0D2CB567#08A6266AA811E128
(1739229595.583769) can0 17ECAF5F#05F07006A572A22E
(1739229595.584822) can0 0FAFDB7E#17D80715EDA1514F
(1739229595.585875) can0 0B5F7C5A#127FFE77F8BA6B41
(1739229595.586928) can0 0312BF0B#40F8FF4B5DCACD17
(1739229595.587984) can0 03E4BCCB#1E47504998D94F5B
(1739229595.589037) can0 032E7F58#82FD7C0944950E77
(1739229595.590090) can0 0FAC0FE0#15934D1A980A1E07
(1739229595.591130) can0 162ED023#7A5AE75EE43E4239
(1739229595.592183) can0 08D232F2#2D2F1D51781B462B
(1739229595.593237) can0 1D251107#94E4491E81C16C15
(1739229595.594290) can0 060622AF#F393367686B1DD1B
(1739229595.595343) can0 14A89554#716FE6259D89E530
(1739229595.596396) can0 03FA3741#CBEB4551AF08E428
(1739229595.597449) can0 0565F239#D6AA5814EF00E474
(1739229595.598502) can0 1D33BC96#A1673D780E48343E
(1739229595.599555) can0 1883962F#F9E66B5B9045B147
(1739229595.600608) can0 0F922B73#D9F6170BA5D8FE61
(1739229595.601661) can0 16B0360C#FDC646411F33E640
(1739229595.602714) can0 0FF274F0#EFF9186A4C620312
(1739229595.603767) can0 1B389068#F60A3E67E0464D30
(1739229595.604819) can0 10A551E9#A62D440DD4DA8326
(1739229595.605872) can0 0C83036F#FAC2EC61454A6A4C
(1739229595.606925) can0 1D688D0C#3CFAE6051136B01D
(1739229595.607980) can0 064C95BC#75EC4C6BE7E00832
(1739229595.609034) can0 1B3096AB#0CA980688948462A
(1739229595.610087) can0 1964DEB9#3B3F0441822FB205
(1739229595.611134) can0 01162449#AE6A96105C26CA10
(1739229595.612187) can0 0314FCEF#BAA0466759ED1052
(1739229595.613241) can0 03FB300E#AA15397748E7293C
(1739229595.614294) can0 15FE925B#13A671323EF26723
(1739229595.615348) can0 064BD93B#FCF71603E41FAC30
(1739229595.616401) can0 0CCFB40F#6CFB996FDFE29812
(1739229595.617454) can0 1939FE55#7888020D1BDD7F18
(1739229595.618523) can0 16EA3466#341E4F5390C9CC03
(1739229595.619590) can0 08F3154D#E0B47F0E9C724D6C
(1739229595.620659) can0 13395DD6#9993E407D7B1512D
(1739229595.621726) can0 18EB8D59#E3B7FA48861CE83D
(1739229595.622789) can0 09B5B3B5#D2B40F6C40BD2E25
(1739229595.623844) can0 1BC6A10E#E0E40A50EBD2671C
(1739229595.624897) can0 17F08856#3B770946FE78D94E
(1739229595.625950) can0 1B587A94#7750556CFA70F051
(1739229595.627003) can0 0C049A79#86042539666C8A41
(1739229595.628056) can0 1E9D7D58#DB025F52DFF48C4E
(1739229595.629109) can0 171D5A73#413749091313DC21
(1739229595.630130) can0 1AEA2403#8F4C3C72F3C75B30
(1739229595.631183) can0 073796A0#65AA75058D5B4038
(1739229595.632237) can0 14894877#BE37611E70133B01
(1739229595.633290) can0 127164FD#73EB164842C84A6D
(1739229595.634343) can0 17A0223E#818CDD4322AD553D
(1739229595.635396) can0 1407F529#D714CE7B5E245F03
(1739229595.636449) can0 02E16E27#6C8F2657D574B46F
(1739229595.637503) can0 14D1DF21#E5292B635B79D928
(1739229595.638556) can0 165C4B88#3DA7C801377C387B
(1739229595.639610) can0 04E94067#B001E63878B38104
(1739229595.640662) can0 06C5537A#B325D0730700BE76
(1739229595.641716) can0 17211B6E#53BC071B6DAA337C
(1739229595.642769) can0 0F6176FB#CB04916F2BE2941A
(1739229595.643822) can0 109C8A6B#C86902029FCDAB62
(1739229595.644875) can0 1DE752AD#068CA239205A8926
(1739229595.645928) can0 1B3CFFCF#2F81AA0DF86E5722
(1739229595.646981) can0 1E9C242D#56EF8B3064FE7D79
(1739229595.648034) can0 0E509902#78CE5D254928A95C
(1739229595.649087) can0 172A125E#001ABA5B86CF715E
(1739229595.650141) can0 12628E95#675AA36036D15717
(1739229595.651195) can0 16E4420D#E1AD6807E9F6270B
(1739229595.652248) can0 0DA24215#4FC9895E3DB32F26
(1739229595.653302) can0 09D5EC82#4A40EB6D08B8C015
(1739229595.654356) can0 046ACEAD#B5CA877ED021C317
(1739229595.655409) can0 07169C4C#621D6F7CD7AD6551
(1739229595.656463) can0 0D9FF66D#321DAC37062F105F
(1739229595.657518) can0 0FF76565#5F4148765D1E9C0F
(1739229595.658572) can0 097563C9#62DA9824D5ECF934
(1739229595.659626) can0 061E8C12#C0ECC27BD506B410
(1739229595.660679) can0 04905B98#557B254E3C615771
(1739229595.661732) can0 1BE82CCE#62BD09251D0FC078
(1739229595.662786) can0 071023B7#77FFAB726DD84957
(1739229595.663839) can0 0D3FD6F4#F9EB813CB7183545
(1739229595.664892) can0 03008EFC#A7BAEC206DE3BC43
(1739229595.665945) can0 1AC3B0CD#F3560368CF002C40
(1739229595.666999) can0 0C295EA4#604DA355011ED877
(1739229595.668053) can0 0B398DAA#C5B29A65615F206E
(1739229595.669106) can0 1AD5AC07#8E16106FC339B912
(1739229595.670160) can0 0FCF98DC#A0A22E5583267C0E
(1739229595.671213) can0 00839FB1#38FEBE19D8A1A15C
(1739229595.672266) can0 11DB00ED#062BA7753A5FAB01
(1739229595.673319) can0 0A9B100B#BE4EB75CB25E5774
(1739229595.674373) can0 01E4E878#B225F769AB4AD930
(1739229595.675426) can0 071A012F#AFB4F70C5205C651
(1739229595.676479) can0 0AD6E49C#7C65BB47465CC939
(1739229595.677532) can0 0B02E56C#20C4E453A6A96C0F
(1739229595.678585) can0 02DB036D#CA511E3F6C5C0775
(1739229595.679639) can0 10FB62CE#D2FDF339FA721764
(1739229595.680691) can0 03B49C91#AE96C3699B154639
(1739229595.681744) can0 1230C314#6036472AD3130553
(1739229595.682798) can0 0ED264EC#4D37225CDA3EAC48
(1739229595.683853) can0 107DC427#5847BD06988D6325
(1739229595.684906) can0 04D522D9#D02FA2084AB35A0F
(1739229595.685959) can0 15AE6D84#0031BC4FF967521C
(1739229595.687012) can0 077472D7#9C15935A75CD0D64
(1739229595.688065) can0 013DCF1D#08FB95259591F237
(1739229595.689118) can0 10AA78C3#76FE706860E31077
(1739229595.690130) can0 05B1D52F#44616C1932E10431
(1739229595.691184) can0 09C9482A#D6FD205DE077C81A
(1739229595.692242) can0 030F5DC5#EAC0512F40AE0F45
(1739229595.693295) can0 16147198#D725245E8EE53121
(1739229595.694348) can0 1EC0B072#FEE9A10EE62CEF27
(1739229595.695382) can0 04243E0A#D70C7733B75C9130
(1739229595.696449) can0 137EF155#5B7A2509B78D4D00
(1739229595.697516) can0 0FD1594E#32ED993053A3E05A
(1739229595.698582) can0 13DF26C4#4FBCD7115C9E7600
(1739229595.699650) can0 0BD1B859#13358202D29CE768
(1739229595.700713) can0 02E29BB9#420A346816FE5302
(1739229595.701768) can0 13E77CEB  // intentionally truncated for testing
