(1739920494.176898) can0 09F8031C#51781722000EFEFF
(1739920494.177919) can0 09F8041C#5178C43CF3000000
(1739920494.275416) can0 09F8021C#51FC3CF3C201FFFF
(1739920494.275962) can0 09F8031C#518CC62700BBFDFF
(1739920494.276863) can0 09F8041C#518CC43CF3000000
(1739920494.375451) can0 09F8021C#51FC3CF3C201FFFF
(1739920494.376000) can0 09F8031C#51A1742D0068FDFF
(1739920494.377103) can0 09F8041C#51A1C43CF3000000
(1739920494.475407) can0 09F8021C#51FC3CF3C201FFFF
(1739920494.475958) can0 09F8031C#51B423330015FDFF
(1739920494.476856) can0 09F8041C#51B4C43CF3000000
(1739920494.576843) can0 09F8021C#51FC3CF3C201FFFF
(1739920494.577032) can0 09F8031C#51C8D13800C2FCFF
(1739920494.578144) can0 09F8041C#51C8C43CF3000000
(1739920494.579828) can0 15F8051C#A02F521101BBB0CE
(1739920494.580925) can0 15F8051C#A128503D9EEE7665
(1739920494.582015) can0 15F8051C#A2C7FE00681912FA
(1739920494.582728) can0 15F8051C#A368A0EC00000000
(1739920494.583350) can0 15F8051C#A40000000040000E
(1739920494.583956) can0 15F8051C#A550009600000000
(1739920494.585469) can0 15F8051C#A60001A008F401FF
(1739920494.675417) can0 09F8021C#52FC3CF3C201FFFF
(1739920494.675967) can0 09F8031C#5214AE0500ADFFFF
(1739920494.676841) can0 09F8041C#5214C43CF3000000
(1739920494.775383) can0 09F8021C#52FC3CF3C201FFFF
(1739920494.775932) can0 09F8031C#52285D0B005AFFFF
(1739920494.776833) can0 09F8041C#5228C43CF3000000
(1739920494.875419) can0 09F8021C#52FC3CF3C201FFFF
(1739920494.875952) can0 09F8031C#523D0B110007FFFF
(1739920494.876831) can0 09F8041C#523DC43CF3000000
(1739920494.976257) can0 09F8021C#52FC3CF3C201FFFF
(1739920494.976803) can0 09F8031C#5250BA1600B4FEFF
(1739920494.977888) can0 09F8041C#5250C43CF3000000
(1739920495.075430) can0 09F8021C#52FC3CF3C201FFFF
(1739920495.075988) can0 09F8031C#5264681C0061FEFF
(1739920495.077105) can0 09F8041C#5264C43CF3000000
(1739920495.175464) can0 09F8021C#52FC3CF3C201FFFF
(1739920495.175958) can0 09F8031C#52781722000EFEFF
(1739920495.176851) can0 09F8041C#5278C43CF3000000
(1739920495.275387) can0 09F8021C#52FC3CF3C201FFFF
(1739920495.275936) can0 09F8031C#528CC62700BBFDFF
(1739920495.276820) can0 09F8041C#528CC43CF3000000
(1739920495.376254) can0 09F8021C#52FC3CF3C201FFFF
(1739920495.376788) can0 09F8031C#52A1742D0068FDFF
(1739920495.377862) can0 09F8041C#52A1C43CF3000000
(1739920495.475367) can0 09F8021C#52FC3CF3C201FFFF
(1739920495.475914) can0 09F8031C#52B423330015FDFF
(1739920495.476818) can0 09F8041C#52B4C43CF3000000
(1739920495.575388) can0 09F8021C#52FC3CF3C201FFFF
(1739920495.575945) can0 09F8031C#52C8D13800C2FCFF
(1739920495.577068) can0 09F8041C#52C8C43CF3000000
(1739920495.578750) can0 15F8051C#C02F531101CBD7CE
(1739920495.579846) can0 15F8051C#C128D0261B02D565
(1739920495.580947) can0 15F8051C#C2C7FE00117EB3F4
(1739920495.582067) can0 15F8051C#C368A0EC00000000
(1739920495.582795) can0 15F8051C#C40000000040000E
(1739920495.583447) can0 15F8051C#C550009600000000
(1739920495.585420) can0 15F8051C#C60001A008F401FF
(1739920495.676177) can0 09F8021C#53FC3CF3C201FFFF
(1739920495.676726) can0 09F8031C#5314AE0500ADFFFF
(1739920495.677871) can0 09F8041C#5314C43CF3000000
(1739920495.776212) can0 09F8021C#53FC3CF3C201FFFF
(1739920495.776763) can0 09F8031C#53285D0B005AFFFF
(1739920495.777894) can0 09F8041C#5328C43CF3000000
(1739920495.875348) can0 09F8021C#53FC3CF3C201FFFF
(1739920495.875885) can0 09F8031C#533D0B110007FFFF
(1739920495.876796) can0 09F8041C#533DC43CF3000000
(1739920495.975337) can0 09F8021C#53FC3CF3C201FFFF
(1739920495.975881) can0 09F8031C#5350BA1600B4FEFF
(1739920495.976788) can0 09F8041C#5350C43CF3000000
(1739920496.075344) can0 09F8021C#53FC3CF3C201FFFF
(1739920496.075906) can0 09F8031C#5364681C0061FEFF
(1739920496.077025) can0 09F8041C#5364C43CF3000000
(1739920496.176238) can0 09F8021C#53FC3CF3C201FFFF
(1739920496.176798) can0 09F8031C#53781722000EFEFF
(1739920496.177922) can0 09F8041C#5378C43CF3000000
(1739920496.275357) can0 09F8021C#53FC3CF3C201FFFF
(1739920496.275905) can0 09F8031C#538CC62700BBFDFF
(1739920496.277021) can0 09F8041C#538CC43CF3000000
(1739920496.375382) can0 09F8021C#53FC3CF3C201FFFF
(1739920496.375920) can0 09F8031C#53A1742D0068FDFF
(1739920496.377019) can0 09F8041C#53A1C43CF3000000
(1739920496.475317) can0 09F8021C#53FC3CF3C201FFFF
(1739920496.475863) can0 09F8031C#53B423330015FDFF
(1739920496.476992) can0 09F8041C#53B4C43CF3000000
(1739920496.576215) can0 09F8021C#53FC3CF3C201FFFF
(1739920496.576769) can0 09F8031C#53C8D13800C2FCFF
(1739920496.578290) can0 09F8041C#53C8C43CF3000000
(1739920496.579407) can0 15F8051C#E02F541101DBFECE
(1739920496.580519) can0 15F8051C#E128601098153366
(1739920496.581654) can0 15F8051C#E2C7FE00BBE254EF
(1739920496.582783) can0 15F8051C#E368A0EC00000000
(1739920496.583917) can0 15F8051C#E40000000040000E
(1739920496.585606) can0 15F8051C#E550009600000000
(1739920496.586704) can0 15F8051C#E60001A008F401FF
(1739920496.675337) can0 09F8021C#54FC3CF3C201FFFF
(1739920496.675891) can0 09F8031C#5414AE0500ADFFFF
(1739920496.677011) can0 09F8041C#5414C43CF3000000
(1739920496.775318) can0 09F8021C#54FC3CF3C201FFFF
(1739920496.775872) can0 09F8031C#54285D0B005AFFFF
(1739920496.776761) can0 09F8041C#5428C43CF3000000
(1739920496.875297) can0 09F8021C#54FC3CF3C201FFFF
(1739920496.875852) can0 09F8031C#543D0B110007FFFF
(1739920496.876746) can0 09F8041C#543DC43CF3000000
(1739920496.976162) can0 09F8021C#54FC3CF3C201FFFF
(1739920496.976706) can0 09F8031C#5450BA1600B4FEFF
(1739920496.977787) can0 09F8041C#5450C43CF3000000
(1739920497.075312) can0 09F8021C#54FC3CF3C201FFFF
(1739920497.075882) can0 09F8031C#5464681C0061FEFF
(1739920497.077003) can0 09F8041C#5464C43CF3000000
(1739920497.175535) can0 09F8021C#54FC3CF3C201FFFF
(1739920497.175970) can0 09F8031C#54781722000EFEFF
(1739920497.177098) can0 09F8041C#5478C43CF3000000
(1739920497.275277) can0 09F8021C#54FC3CF3C201FFFF
(1739920497.275825) can0 09F8031C#548CC62700BBFDFF
(1739920497.276730) can0 09F8041C#548CC43CF3000000
(1739920497.376204) can0 09F8021C#54FC3CF3C201FFFF
(1739920497.376750) can0 09F8031C#54A1742D0068FDFF
(1739920497.377782) can0 09F8041C#54A1C43CF3000000
(1739920497.475294) can0 09F8021C#54FC3CF3C201FFFF
(1739920497.475858) can0 09F8031C#54B423330015FDFF
(1739920497.476723) can0 09F8041C#54B4C43CF3000000
(1739920497.575290) can0 09F8021C#54FC3CF3C201FFFF
(1739920497.575841) can0 09F8031C#54C8D13800C2FCFF
(1739920497.576965) can0 09F8041C#54C8C43CF3000000
(1739920497.578656) can0 15F8051C#002F551101EB25CF
(1739920497.579765) can0 15F8051C#0128E0F914299166
(1739920497.580874) can0 15F8051C#02C7FE006547F6E9
(1739920497.581981) can0 15F8051C#0368A0EC00000000
(1739920497.583125) can0 15F8051C#040000000040000E
(1739920497.583751) can0 15F8051C#0550009600000000
(1739920497.585329) can0 15F8051C#060001A008F401FF
(1739920497.675285) can0 09F8021C#55FC3CF3C201FFFF
(1739920497.675845) can0 09F8031C#5514AE0500ADFFFF
(1739920497.676970) can0 09F8041C#5514C43CF3000000
(1739920497.776136) can0 09F8021C#55FC3CF3C201FFFF
(1739920497.776687) can0 09F8031C#55285D0B005AFFFF
(1739920497.777765) can0 09F8041C#5528C43CF3000000
(1739920497.875250) can0 09F8021C#55FC3CF3C201FFFF
(1739920497.875808) can0 09F8031C#553D0B110007FFFF
(1739920497.876697) can0 09F8041C#553DC43CF3000000
(1739920497.975263) can0 09F8021C#55FC3CF3C201FFFF
(1739920497.975807) can0 09F8031C#5550BA1600B4FEFF
(1739920497.976687) can0 09F8041C#5550C43CF3000000
(1739920498.075231) can0 09F8021C#55FC3CF3C201FFFF
(1739920498.075784) can0 09F8031C#5564681C0061FEFF
(1739920498.076916) can0 09F8041C#5564C43CF3000000
(1739920498.176120) can0 09F8021C#55FC3CF3C201FFFF
(1739920498.176675) can0 09F8031C#55781722000EFEFF
(1739920498.177790) can0 09F8041C#5578C43CF3000000
(1739920498.275221) can0 09F8021C#55FC3CF3C201FFFF
(1739920498.275767) can0 09F8031C#558CC62700BBFDFF
(1739920498.276672) can0 09F8041C#558CC43CF3000000
(1739920498.375227) can0 09F8021C#55FC3CF3C201FFFF
(1739920498.375808) can0 09F8031C#55A1742D0068FDFF
(1739920498.376753) can0 09F8041C#55A1C43CF3000000
(1739920498.475212) can0 09F8021C#55FC3CF3C201FFFF
(1739920498.475760) can0 09F8031C#55B423330015FDFF
(1739920498.476669) can0 09F8041C#55B4C43CF3000000
(1739920498.576085) can0 09F8021C#55FC3CF3C201FFFF
(1739920498.576644) can0 09F8031C#55C8D13800C2FCFF
(1739920498.577715) can0 09F8041C#55C8C43CF3000000
(1739920498.578842) can0 15F8051C#402F561101FB4CCF
(1739920498.579948) can0 15F8051C#412860E3913CEF66
(1739920498.580514) can0 15F8051C#42C7FE000EAC97E4
(1739920498.581090) can0 15F8051C#4368A0EC00000000
(1739920498.582224) can0 15F8051C#440000000040000E
(1739920498.582818) can0 15F8051C#4550009600000000
(1739920498.584512) can0 15F8051C#460001A008F401FF
(1739920498.675235) can0 09F8021C#56FC3CF3C201FFFF
(1739920498.675794) can0 09F8031C#5614AE0500ADFFFF
(1739920498.676657) can0 09F8041C#5614C43CF3000000
(1739920498.775692) can0 09F8021C#56FC3CF3C201FFFF
(1739920498.776248) can0 09F8031C#56285C0B005AFFFF
(1739920498.776808) can0 09F8041C#5628C43CF3000000
(1739920498.875193) can0 09F8021C#56FC3CF3C201FFFF
(1739920498.875754) can0 09F8031C#563D0B110007FFFF
(1739920498.876648) can0 09F8041C#563DC43CF3000000
(1739920498.976099) can0 09F8021C#56FC3CF3C201FFFF
(1739920498.976629) can0 09F8031C#5650BA1600B4FEFF
(1739920498.977693) can0 09F8041C#5650C43CF3000000
(1739920499.075938) can0 09F8021C#56FC3CF3C201FFFF
(1739920499.076494) can0 09F8031C#5664681C0061FEFF
(1739920499.077452) can0 09F8041C#5664C43CF3000000
(1739920499.175210) can0 09F8021C#56FC3CF3C201FFFF
(1739920499.175771) can0 09F8031C#56781722000EFEFF
(1739920499.176896) can0 09F8041C#5678C43CF3000000
(1739920499.275186) can0 09F8021C#56FC3CF3C201FFFF
(1739920499.275735) can0 09F8031C#568CC52700BBFDFF
(1739920499.276675) can0 09F8041C#568CC43CF3000000
(1739920499.376055) can0 09F8021C#56FC3CF3C201FFFF
(1739920499.376609) can0 09F8031C#56A1742D0068FDFF
(1739920499.377678) can0 09F8041C#56A1C43CF3000000
(1739920499.475167) can0 09F8021C#56FC3CF3C201FFFF
(1739920499.475718) can0 09F8031C#56B422330015FDFF
(1739920499.476962) can0 09F8041C#56B4C43CF3000000
(1739920499.575216) can0 09F8021C#56FC3CF3C201FFFF
(1739920499.575767) can0 09F8031C#56C8D13800C2FCFF
(1739920499.576617) can0 09F8041C#56C8C43CF3000000
(1739920499.577750) can0 15F8051C#602F5711010B74CF
(1739920499.578301) can0 15F8051C#612860E1474F4D67
(1739920499.578881) can0 15F8051C#62C7FE00B91039DF
(1739920499.579460) can0 15F8051C#6368A0EC00000000
(1739920499.580599) can0 15F8051C#640000000040000E
(1739920499.581718) can0 15F8051C#6550009600000000
(1739920499.582816) can0 15F8051C#660001A008F401FF
(1739920499.675161) can0 09F8021C#57FC3CF3C201FFFF
(1739920499.675716) can0 09F8031C#5714AE0500ADFFFF
(1739920499.676608) can0 09F8041C#5714C43CF3000000
(1739920499.776056) can0 09F8021C#57FC3CF3C201FFFF
(1739920499.776606) can0 09F8031C#57285D0B005AFFFF
(1739920499.777653) can0 09F8041C#5728C43CF3000000
(1739920499.875152) can0 09F8021C#57FC3CF3C201FFFF
(1739920499.875720) can0 09F8031C#573D0B110007FFFF
(1739920499.876607) can0 09F8041C#573DC43CF3000000
(1739920499.975147) can0 09F8021C#57FC3CF3C201FFFF
(1739920499.975698) can0 09F8031C#5750BA1600B4FEFF
(1739920499.976589) can0 09F8041C#5750C43CF3000000
(1739920500.075147) can0 09F8021C#57FC3CF3C201FFFF
(1739920500.075707) can0 09F8031C#5764681C0061FEFF
(1739920500.076588) can0 09F8041C#5764C43CF3000000
(1739920500.176039) can0 09F8021C#57FC3CF3C201FFFF
(1739920500.176602) can0 09F8031C#57781722000EFEFF
(1739920500.177635) can0 09F8041C#5778C43CF3000000
(1739920500.275139) can0 09F8021C#57FC3CF3C201FFFF
(1739920500.275690) can0 09F8031C#578CC52700BBFDFF
(1739920500.276578) can0 09F8041C#578CC43CF3000000
(1739920500.375126) can0 09F8021C#57FC3CF3C201FFFF
(1739920500.375677) can0 09F8031C#57A1742D0068FDFF
(1739920500.376810) can0 09F8041C#57A1C43CF3000000
(1739920500.475181) can0 09F8021C#57FC3CF3C201FFFF
(1739920500.475711) can0 09F8031C#57B423330015FDFF
(1739920500.476849) can0 09F8041C#57B4C43CF3000000
(1739920500.576036) can0 09F8021C#57FC3CF3C201FFFF
(1739920500.576595) can0 09F8031C#57C8D13800C2FCFF
(1739920500.577637) can0 09F8041C#57C8C43CF3000000
(1739920500.578746) can0 15F8051C#802F5811011B9BCF
(1739920500.579312) can0 15F8051C#8128A0284762AB67
(1739920500.579879) can0 15F8051C#82C7FE006275DAD9
(1739920500.580464) can0 15F8051C#8368A0EC00000000
(1739920500.581595) can0 15F8051C#840000000040000E
(1739920500.582722) can0 15F8051C#8550009600000000
(1739920500.583831) can0 15F8051C#860001A008F401FF
(1739920500.675113) can0 09F8021C#58FC3CF3C201FFFF
(1739920500.675670) can0 09F8031C#5814AE0500ADFFFF
(1739920500.676570) can0 09F8041C#5814C43CF3000000
(1739920500.775109) can0 09F8021C#58FC3CF3C201FFFF
(1739920500.775668) can0 09F8031C#58285D0B005AFFFF
(1739920500.776796) can0 09F8041C#5828C43CF3000000
(1739920500.875144) can0 09F8021C#58FC3CF3C201FFFF
(1739920500.875707) can0 09F8031C#583D0B110007FFFF
(1739920500.876566) can0 09F8041C#583DC43CF3000000
(1739920500.975973) can0 09F8021C#58FC3CF3C201FFFF
(1739920500.976527) can0 09F8031C#5850BA1600B4FEFF
(1739920500.977604) can0 09F8041C#5850C43CF3000000
(1739920501.075087) can0 09F8021C#58FC3CF3C201FFFF
(1739920501.075646) can0 09F8031C#5864681C0061FEFF
(1739920501.076554) can0 09F8041C#5864C43CF3000000
(1739920501.175074) can0 09F8021C#58FC3CF3C201FFFF
(1739920501.175633) can0 09F8031C#58781722000EFEFF
(1739920501.176537) can0 09F8041C#5878C43CF3000000
(1739920501.275100) can0 09F8021C#58FC3CF3C201FFFF
(1739920501.275646) can0 09F8031C#588CC52700BBFDFF
(1739920501.276531) can0 09F8041C#588CC43CF3000000
(1739920501.375985) can0 09F8021C#58FC3CF3C201FFFF
(1739920501.376546) can0 09F8031C#58A1742D0068FDFF
(1739920501.377591) can0 09F8041C#58A1C43CF3000000
(1739920501.475070) can0 09F8021C#58FC3CF3C201FFFF
(1739920501.475626) can0 09F8031C#58B423330015FDFF
(1739920501.476534) can0 09F8041C#58B4C43CF3000000
(1739920501.575071) can0 09F8021C#58FC3CF3C201FFFF
(1739920501.575621) can0 09F8031C#58C8D13800C2FCFF
(1739920501.576521) can0 09F8041C#58C8C43CF3000000
(1739920501.577646) can0 15F8051C#A02F5911012BC2CF
(1739920501.578603) can0 15F8051C#A12840605B750968
(1739920501.579719) can0 15F8051C#A2C7FE000DDA7BD4
(1739920501.580840) can0 15F8051C#A368A0EC00000000
(1739920501.581961) can0 15F8051C#A40000000040000E
(1739920501.582605) can0 15F8051C#A550009600000000
(1739920501.583758) can0 15F8051C#A60001A008F401FF
(1739920501.675069) can0 09F8021C#59FC3CF3C201FFFF
(1739920501.675625) can0 09F8031C#5914AE0500ADFFFF
(1739920501.676510) can0 09F8041C#5914C43CF3000000
(1739920501.775940) can0 09F8021C#59FC3CF3C201FFFF
(1739920501.776495) can0 09F8031C#59285D0B005AFFFF
(1739920501.777558) can0 09F8041C#5928C43CF3000000
(1739920501.875061) can0 09F8021C#59FC3CF3C201FFFF
(1739920501.875612) can0 09F8031C#593D0B110007FFFF
(1739920501.876499) can0 09F8041C#593DC43CF3000000
(1739920501.975064) can0 09F8021C#59FC3CF3C201FFFF
(1739920501.975602) can0 09F8031C#5950BA1600B4FEFF
(1739920501.976517) can0 09F8041C#5950C43CF3000000
(1739920502.075049) can0 09F8021C#59FC3CF3C201FFFF
(1739920502.075605) can0 09F8031C#5964681C0061FEFF
(1739920502.076494) can0 09F8041C#5964C43CF3000000
(1739920502.175906) can0 09F8021C#59FC3CF3C201FFFF
(1739920502.176468) can0 09F8031C#59781722000EFEFF
(1739920502.177554) can0 09F8041C#5978C43CF3000000
(1739920502.275080) can0 09F8021C#59FC3CF3C201FFFF
(1739920502.275627) can0 09F8031C#598CC52700BBFDFF
(1739920502.276492) can0 09F8041C#598CC43CF3000000
(1739920502.375354) can0 09F8021C#59FC3CF3C201FFFF
(1739920502.375905) can0 09F8031C#59A1742D0068FDFF
(1739920502.376982) can0 09F8041C#59A1C43CF3000000
(1739920502.475034) can0 09F8021C#59FC3CF3C201FFFF
(1739920502.475605) can0 09F8031C#59B423330015FDFF
(1739920502.476701) can0 09F8041C#59B4C43CF3000000
(1739920502.575906) can0 09F8021C#59FC3CF3C201FFFF
(1739920502.576466) can0 09F8031C#59C8D13800C2FCFF
(1739920502.577526) can0 09F8041C#59C8C43CF3000000
(1739920502.578656) can0 15F8051C#C02F5A11013BE9CF
(1739920502.579626) can0 15F8051C#C128F0976F886768
(1739920502.580764) can0 15F8051C#C2C7FE00B63E1DCF
(1739920502.581575) can0 15F8051C#C368A0EC00000000
(1739920502.582714) can0 15F8051C#C40000000040000E
(1739920502.583304) can0 15F8051C#C550009600000000
(1739920502.585598) can0 15F8051C#C60001A008F401FF
(1739920502.675028) can0 09F8021C#5AFC3CF3C201FFFF
(1739920502.675569) can0 09F8031C#5A14AE0500ADFFFF
(1739920502.676471) can0 09F8041C#5A14C43CF3000000
(1739920502.775028) can0 09F8021C#5AFC3CF3C201FFFF
(1739920502.775584) can0 09F8031C#5A285D0B005AFFFF
(1739920502.776458) can0 09F8041C#5A28C43CF3000000
(1739920502.875010) can0 09F8021C#5AFC3CF3C201FFFF
(1739920502.875569) can0 09F8031C#5A3D0B110007FFFF
(1739920502.876453) can0 09F8041C#5A3DC43CF3000000
(1739920502.975891) can0 09F8021C#5AFC3CF3C201FFFF
(1739920502.976441) can0 09F8031C#5A50BA1600B4FEFF
(1739920502.977507) can0 09F8041C#5A50C43CF3000000
(1739920503.075039) can0 09F8021C#5AFC3CF3C201FFFF
(1739920503.075586) can0 09F8031C#5A64681C0061FEFF
(1739920503.076698) can0 09F8041C#5A64C43CF3000000
(1739920503.175147) can0 09F8021C#5AFC3CF3C201FFFF
(1739920503.175703) can0 09F8031C#5A781722000EFEFF
(1739920503.176832) can0 09F8041C#5A78C43CF3000000
(1739920503.274993) can0 09F8021C#5AFC3CF3C201FFFF
(1739920503.275538) can0 09F8031C#5A8CC52700BBFDFF
(1739920503.276668) can0 09F8041C#5A8CC43CF3000000
(1739920503.375859) can0 09F8021C#5AFC3CF3C201FFFF
(1739920503.376435) can0 09F8031C#5AA1742D0068FDFF
(1739920503.377544) can0 09F8041C#5AA1C43CF3000000
(1739920503.475006) can0 09F8021C#5AFC3CF3C201FFFF
(1739920503.475562) can0 09F8031C#5AB423330015FDFF
(1739920503.476431) can0 09F8041C#5AB4C43CF3000000
(1739920503.574982) can0 09F8021C#5AFC3CF3C201FFFF
(1739920503.575533) can0 09F8031C#5AC8D13800C2FCFF
(1739920503.576428) can0 09F8041C#5AC8C43CF3000000
(1739920503.577563) can0 15F8051C#202F5B11014B10D0
(1739920503.578693) can0 15F8051C#212890CF839BC568
(1739920503.579664) can0 15F8051C#22C7FE005FA3BEC9
(1739920503.580791) can0 15F8051C#2368A0EC00000000
(1739920503.581923) can0 15F8051C#240000000040000E
(1739920503.583034) can0 15F8051C#2550009600000000
(1739920503.585053) can0 15F8051C#260001A008F401FF
(1739920503.674982) can0 09F8021C#5BFC3CF3C201FFFF
(1739920503.675541) can0 09F8031C#5B14AE0500ADFFFF
(1739920503.676438) can0 09F8041C#5B14C43CF3000000
(1739920503.775854) can0 09F8021C#5BFC3CF3C201FFFF
(1739920503.776402) can0 09F8031C#5B285D0B005AFFFF
(1739920503.777479) can0 09F8041C#5B28C43CF3000000
(1739920503.874988) can0 09F8021C#5BFC3CF3C201FFFF
(1739920503.875536) can0 09F8031C#5B3D0B110007FFFF
(1739920503.876420) can0 09F8041C#5B3DC43CF3000000
(1739920503.974961) can0 09F8021C#5BFC3CF3C201FFFF
(1739920503.975510) can0 09F8031C#5B50BA1600B4FEFF
(1739920503.976409) can0 09F8041C#5B50C43CF3000000
(1739920504.074963) can0 09F8021C#5BFC3CF3C201FFFF
(1739920504.075535) can0 09F8031C#5B64681C0061FEFF
(1739920504.076404) can0 09F8041C#5B64C43CF3000000
(1739920504.175878) can0 09F8021C#5BFC3CF3C201FFFF
(1739920504.176436) can0 09F8031C#5B781722000EFEFF
(1739920504.177479) can0 09F8041C#5B78C43CF3000000
(1739920504.275303) can0 09F8021C#5BFC3CF3C201FFFF
(1739920504.275856) can0 09F8031C#5B8CC52700BBFDFF
(1739920504.276496) can0 09F8041C#5B8CC43CF3000000
(1739920504.375408) can0 09F8021C#5BFC3CF3C201FFFF
(1739920504.375962) can0 09F8031C#5BA1742D0068FDFF
(1739920504.376521) can0 09F8041C#5BA1C43CF3000000
(1739920504.474944) can0 09F8021C#5BFC3CF3C201FFFF
(1739920504.475499) can0 09F8031C#5BB423330015FDFF
(1739920504.476587) can0 09F8041C#5BB4C43CF3000000
(1739920504.575819) can0 09F8021C#5BFC3CF3C201FFFF
(1739920504.576458) can0 09F8031C#5BC8D13800C2FCFF
(1739920504.577450) can0 09F8041C#5BC8C43CF3000000
(1739920504.578570) can0 15F8051C#402F5C11015B37D0
(1739920504.579687) can0 15F8051C#4128300798AE2369
(1739920504.580799) can0 15F8051C#42C7FE000A0860C4
(1739920504.581909) can0 15F8051C#4368A0EC00000000
(1739920504.583053) can0 15F8051C#440000000040000E
(1739920504.585095) can0 15F8051C#4550009600000000
(1739920504.585638) can0 15F8051C#460001A008F401FF
(1739920504.674958) can0 09F8021C#5CFC3CF3C201FFFF
(1739920504.675523) can0 09F8031C#5C14AE0500ADFFFF
(1739920504.676394) can0 09F8041C#5C14C43CF3000000
(1739920504.774917) can0 09F8021C#5CFC3CF3C201FFFF
(1739920504.775469) can0 09F8031C#5C285D0B005AFFFF
(1739920504.776419) can0 09F8041C#5C28C43CF3000000
(1739920504.874916) can0 09F8021C#5CFC3CF3C201FFFF
(1739920504.875475) can0 09F8031C#5C3D0B110007FFFF
(1739920504.876490) can0 09F8041C#5C3DC43CF3000000
(1739920504.975802) can0 09F8021C#5CFC3CF3C201FFFF
(1739920504.976408) can0 09F8031C#5C50BA1600B4FEFF
(1739920504.977412) can0 09F8041C#5C50C43CF3000000
(1739920505.074911) can0 09F8021C#5CFC3CF3C201FFFF
(1739920505.075467) can0 09F8031C#5C64681C0061FEFF
(1739920505.076375) can0 09F8041C#5C64C43CF3000000
(1739920505.174923) can0 09F8021C#5CFC3CF3C201FFFF
(1739920505.175478) can0 09F8031C#5C781722000EFEFF
(1739920505.176431) can0 09F8041C#5C78C43CF3000000
(1739920505.274905) can0 09F8021C#5CFC3CF3C201FFFF
(1739920505.275455) can0 09F8031C#5C8CC52700BBFDFF
(1739920505.276431) can0 09F8041C#5C8CC43CF3000000
(1739920505.375772) can0 09F8021C#5CFC3CF3C201FFFF
(1739920505.376426) can0 09F8031C#5CA1742D0068FDFF
(1739920505.377393) can0 09F8041C#5CA1C43CF3000000
(1739920505.474910) can0 09F8021C#5CFC3CF3C201FFFF
(1739920505.475465) can0 09F8031C#5CB423330015FDFF
(1739920505.476364) can0 09F8041C#5CB4C43CF3000000
(1739920505.575690) can0 09F8021C#5CFC3CF3C201FFFF
(1739920505.576241) can0 09F8031C#5CC8D13800C2FCFF
(1739920505.577395) can0 09F8041C#5CC8C43CF3000000
(1739920505.578515) can0 15F8051C#602F5D11016B5ED0
(1739920505.580372) can0 15F8051C#6128E03EACC18169
(1739920505.583662) can0 15F8051C#62C7FE00B36C01BF
(1739920505.583700) can0 15F8051C#6368A0EC00000000
(1739920505.584970) can0 15F8051C#640000000040000E
(1739920505.585546) can0 15F8051C#6550009600000000
(1739920505.587677) can0 15F8051C#660001A008F401FF
(1739920505.674894) can0 09F8021C#5DFC3CF3C201FFFF
(1739920505.675445) can0 09F8031C#5D14AE0500ADFFFF
(1739920505.676325) can0 09F8041C#5D14C43CF3000000
(1739920505.775757) can0 09F8021C#5DFC3CF3C201FFFF
(1739920505.776309) can0 09F8031C#5D285D0B005AFFFF
(1739920505.777372) can0 09F8041C#5D28C43CF3000000
(1739920505.874908) can0 09F8021C#5DFC3CF3C201FFFF
(1739920505.875465) can0 09F8031C#5D3D0B110007FFFF
(1739920505.876313) can0 09F8041C#5D3DC43CF3000000
(1739920505.974871) can0 09F8021C#5DFC3CF3C201FFFF
(1739920505.975414) can0 09F8031C#5D50BA1600B4FEFF
(1739920505.976329) can0 09F8041C#5D50C43CF3000000
(1739920506.074884) can0 09F8021C#5DFC3CF3C201FFFF
(1739920506.075423) can0 09F8031C#5D64681C0061FEFF
(1739920506.076314) can0 09F8041C#5D64C43CF3000000
(1739920506.175751) can0 09F8021C#5DFC3CF3C201FFFF
(1739920506.176315) can0 09F8031C#5D781722000EFEFF
(1739920506.177372) can0 09F8041C#5D78C43CF3000000
(1739920506.274893) can0 09F8021C#5DFC3CF3C201FFFF
(1739920506.275439) can0 09F8031C#5D8CC52700BBFDFF
(1739920506.276556) can0 09F8041C#5D8CC43CF3000000
(1739920506.374849) can0 09F8021C#5DFC3CF3C201FFFF
(1739920506.375404) can0 09F8031C#5DA1742D0068FDFF
(1739920506.376577) can0 09F8041C#5DA1C43CF3000000
(1739920506.474842) can0 09F8021C#5DFC3CF3C201FFFF
(1739920506.475398) can0 09F8031C#5DB423330015FDFF
(1739920506.476315) can0 09F8041C#5DB4C43CF3000000
(1739920506.575737) can0 09F8021C#5DFC3CF3C201FFFF
(1739920506.576289) can0 09F8031C#5DC8D13800C2FCFF
(1739920506.577347) can0 09F8041C#5DC8C43CF3000000
(1739920506.579033) can0 15F8051C#802F5E11017B85D0
(1739920506.579604) can0 15F8051C#81288076C0D4DF69
(1739920506.580177) can0 15F8051C#82C7FE00F8D9A2B9
(1739920506.580760) can0 15F8051C#8368A0EC00000000
(1739920506.581349) can0 15F8051C#840000000040000E
(1739920506.582484) can0 15F8051C#8550009600000000
(1739920506.583603) can0 15F8051C#860001A008F401FF
(1739920506.674850) can0 09F8021C#5EFC3CF3C201FFFF
(1739920506.675399) can0 09F8031C#5E14AE0500ADFFFF
(1739920506.676291) can0 09F8041C#5E14C43CF3000000
(1739920506.774824) can0 09F8021C#5EFC3CF3C201FFFF
(1739920506.775375) can0 09F8031C#5E285D0B005AFFFF
(1739920506.776275) can0 09F8041C#5E28C43CF3000000
(1739920506.874863) can0 09F8021C#5EFC3CF3C201FFFF
(1739920506.875420) can0 09F8031C#5E3D0B110007FFFF
(1739920506.876270) can0 09F8041C#5E3DC43CF3000000
(1739920506.975752) can0 09F8021C#5EFC3CF3C201FFFF
(1739920506.976255) can0 09F8031C#5E50BA1600B4FEFF
(1739920506.977333) can0 09F8041C#5E50C43CF3000000
(1739920507.074810) can0 09F8021C#5EFC3CF3C201FFFF
(1739920507.075365) can0 09F8031C#5E64681C0061FEFF
(1739920507.076259) can0 09F8041C#5E64C43CF3000000
(1739920507.174813) can0 09F8021C#5EFC3CF3C201FFFF
(1739920507.175374) can0 09F8031C#5E781722000EFEFF
(1739920507.176257) can0 09F8041C#5E78C43CF3000000
(1739920507.274816) can0 09F8021C#5EFC3CF3C201FFFF
(1739920507.275362) can0 09F8031C#5E8CC52700BBFDFF
(1739920507.276261) can0 09F8041C#5E8CC43CF3000000
(1739920507.375697) can0 09F8021C#5EFC3CF3C201FFFF
(1739920507.376256) can0 09F8031C#5EA1742D0068FDFF
(1739920507.377377) can0 09F8041C#5EA1C43CF3000000
(1739920507.474789) can0 09F8021C#5EFC3CF3C401FFFF
(1739920507.475344) can0 09F8031C#5EB426330015FDFF
(1739920507.476488) can0 09F8041C#5EB4C43CF3000000
(1739920507.574897) can0 09F8021C#5EFC3CF3C101FFFF
(1739920507.575449) can0 09F8031C#5EC8D43800C2FCFF
(1739920507.577012) can0 09F8041C#5EC8C43CF3000000
(1739920507.577710) can0 15F8051C#A02F5F11018BACD0
(1739920507.578288) can0 15F8051C#A128D0A63AED3D6A
(1739920507.578824) can0 15F8051C#A2C7FE0088EC43B4
(1739920507.579952) can0 15F8051C#A368A0EC00000000
(1739920507.581060) can0 15F8051C#A40000000040000E
(1739920507.582199) can0 15F8051C#A550009600000000
(1739920507.583311) can0 15F8051C#A60001A008F401FF
(1739920507.674831) can0 09F8021C#5FFC3CF3C101FFFF
(1739920507.675396) can0 09F8031C#5F14A90500AEFFFF
(1739920507.676237) can0 09F8041C#5F14C43CF3000000
(1739920507.775655) can0 09F8021C#5FFC3CF3C201FFFF
(1739920507.776222) can0 09F8031C#5F28580B005BFFFF
(1739920507.777346) can0 09F8041C#5F28C43CF3000000
(1739920507.874796) can0 09F8021C#5FFC3CF3C201FFFF
(1739920507.875356) can0 09F8031C#5F3D07110008FFFF
(1739920507.876236) can0 09F8041C#5F3DC43CF3000000
(1739920507.974777) can0 09F8021C#5FFC3CF3C201FFFF
(1739920507.975340) can0 09F8031C#5F50B61600B5FEFF
(1739920507.976223) can0 09F8041C#5F50C43CF3000000
(1739920508.074783) can0 09F8021C#5FFC3CF3C201FFFF
(1739920508.075332) can0 09F8031C#5F64651C0062FEFF
(1739920508.076238) can0 09F8041C#5F64C43CF3000000
(1739920508.175670) can0 09F8021C#5FFC3CF3C201FFFF
(1739920508.176230) can0 09F8031C#5F781422000FFEFF
(1739920508.177271) can0 09F8041C#5F78C43CF3000000
(1739920508.275042) can0 09F8021C#5FFC3CF3C201FFFF
(1739920508.275599) can0 09F8031C#5F8CC22700BCFDFF
(1739920508.276210) can0 09F8041C#5F8CC43CF3000000
(1739920508.374794) can0 09F8021C#5FFC3CF3C201FFFF
(1739920508.375343) can0 09F8031C#5FA1712D0069FDFF
(1739920508.376220) can0 09F8041C#5FA1C43CF3000000
(1739920508.474782) can0 09F8021C#5FFC3CF3C201FFFF
(1739920508.475354) can0 09F8031C#5FB41F330015FDFF
(1739920508.476210) can0 09F8041C#5FB4C43CF3000000
(1739920508.575646) can0 09F8021C#5FFC3CF3C201FFFF
(1739920508.576200) can0 09F8031C#5FC8CE3800C2FCFF
(1739920508.577279) can0 09F8041C#5FC8C43CF3000000
(1739920508.578394) can0 15F8051C#E02F6011019BD3D0
(1739920508.578945) can0 15F8051C#E128C0E5E8FA9B6A
(1739920508.579521) can0 15F8051C#E2C7FE004CA3E5AE
(1739920508.580097) can0 15F8051C#E368A0EC00000000
(1739920508.580687) can0 15F8051C#E40000000040000E
(1739920508.581813) can0 15F8051C#E550009600000000
(1739920508.582922) can0 15F8051C#E60001A008F401FF
(1739920508.674755) can0 09F8021C#60FC3CF3C201FFFF
(1739920508.675372) can0 09F8031C#6014AE0500ADFFFF
(1739920508.676195) can0 09F8041C#6014C43CF3000000
(1739920508.774827) can0 09F8021C#60FC3CF3C201FFFF
(1739920508.775390) can0 09F8031C#60285D0B005AFFFF
(1739920508.776446) can0 09F8041C#6028C43CF3000000
(1739920508.875540) can0 09F8021C#60FC3CF3C201FFFF
(1739920508.876101) can0 09F8031C#603D0B110007FFFF
(1739920508.877233) can0 09F8041C#603DC43CF3000000
(1739920508.975697) can0 09F8021C#60FC3CF3C201FFFF
(1739920508.976236) can0 09F8031C#6050BA1600B4FEFF
(1739920508.977367) can0 09F8041C#6050C43CF3000000
(1739920509.074737) can0 09F8021C#60FC3CF3C201FFFF
(1739920509.075294) can0 09F8031C#6064681C0061FEFF
(1739920509.076177) can0 09F8041C#6064C43CF3000000
(1739920509.174757) can0 09F8021C#60FC3CF3C201FFFF
(1739920509.175321) can0 09F8031C#60781722000EFEFF
(1739920509.176174) can0 09F8041C#6078C43CF3000000
(1739920509.274746) can0 09F8021C#60FC3CF3C201FFFF
(1739920509.275304) can0 09F8031C#608CC52700BBFDFF
(1739920509.276229) can0 09F8041C#608CC43CF3000000
(1739920509.375608) can0 09F8021C#60FC3CF3C201FFFF
(1739920509.376173) can0 09F8031C#60A1742D0068FDFF
(1739920509.377229) can0 09F8041C#60A1C43CF3000000
(1739920509.474771) can0 09F8021C#60FC3CF3C201FFFF
(1739920509.475330) can0 09F8031C#60B423330015FDFF
(1739920509.476425) can0 09F8041C#60B4C43CF3000000
(1739920509.574713) can0 09F8021C#60FC3CF3C201FFFF
(1739920509.575269) can0 09F8031C#60C8D13800C2FCFF
(1739920509.576404) can0 09F8041C#60C8C43CF3000000
(1739920509.577542) can0 15F8051C#002F611101ABFAD0
(1739920509.578112) can0 15F8051C#0128701DFD0DFA6A
(1739920509.578692) can0 15F8051C#02C7FE00F60787A9
(1739920509.579276) can0 15F8051C#0368A0EC00000000
(1739920509.579869) can0 15F8051C#040000000040000E
(1739920509.581565) can0 15F8051C#0550009600000000
(1739920509.582673) can0 15F8051C#060001A008F401FF
(1739920509.674725) can0 09F8021C#61FC3CF3C201FFFF
(1739920509.675289) can0 09F8031C#6114AE0500ADFFFF
(1739920509.676137) can0 09F8041C#6114C43CF3000000
(1739920509.775577) can0 09F8021C#61FC3CF3C201FFFF
(1739920509.776127) can0 09F8031C#61285D0B005AFFFF
(1739920509.777193) can0 09F8041C#6128C43CF3000000
(1739920509.874694) can0 09F8021C#61FC3CF3C201FFFF
(1739920509.875248) can0 09F8031C#613D0B110007FFFF
(1739920509.876127) can0 09F8041C#613DC43CF3000000
(1739920509.974713) can0 09F8021C#61FC3CF3C201FFFF
(1739920509.975258) can0 09F8031C#6150BA1600B4FEFF
(1739920509.976126) can0 09F8041C#6150C43CF3000000
(1739920510.074678) can0 09F8021C#61FC3CF3C201FFFF
(1739920510.075234) can0 09F8031C#6164681C0061FEFF
(1739920510.076119) can0 09F8041C#6164C43CF3000000
(1739920510.175536) can0 09F8021C#61FC3CF3C201FFFF
(1739920510.176088) can0 09F8031C#61781722000EFEFF
(1739920510.177208) can0 09F8041C#6178C43CF3000000
(1739920510.274664) can0 09F8021C#61FC3CF3C201FFFF
(1739920510.275218) can0 09F8031C#618CC52700BBFDFF
(1739920510.276128) can0 09F8041C#618CC43CF3000000
(1739920510.374663) can0 09F8021C#61FC3CF3C201FFFF
(1739920510.375214) can0 09F8031C#61A1742D0068FDFF
(1739920510.376114) can0 09F8041C#61A1C43CF3000000
(1739920510.474652) can0 09F8021C#61FC3CF3C201FFFF
(1739920510.475204) can0 09F8031C#61B423330015FDFF
(1739920510.476322) can0 09F8041C#61B4C43CF3000000
(1739920510.575535) can0 09F8021C#61FC3CF3C201FFFF
(1739920510.576089) can0 09F8031C#61C8D13800C2FCFF
(1739920510.577162) can0 09F8041C#61C8C43CF3000000
(1739920510.578858) can0 15F8051C#202F621101BB21D1
(1739920510.579967) can0 15F8051C#212810551121586B
(1739920510.581091) can0 15F8051C#22C7FE009F6C28A4
(1739920510.582189) can0 15F8051C#2368A0EC00000000
(1739920510.582782) can0 15F8051C#240000000040000E
(1739920510.584752) can0 15F8051C#2550009600000000
(1739920510.585327) can0 15F8051C#260001A008F401FF
(1739920510.674692) can0 09F8021C#62FC3CF3C201FFFF
(1739920510.675249) can0 09F8031C#6214AE0500ADFFFF
(1739920510.676369) can0 09F8041C#6214C43CF3000000
(1739920510.774647) can0 09F8021C#62FC3CF3C201FFFF
(1739920510.775195) can0 09F8031C#62285D0B005AFFFF
(1739920510.776261) can0 09F8041C#6228C43CF3000000
(1739920510.874650) can0 09F8021C#62FC3CF3C201FFFF
(1739920510.875202) can0 09F8031C#623D0B110007FFFF
(1739920510.876081) can0 09F8041C#623DC43CF3000000
(1739920510.975566) can0 09F8021C#62FC3CF3C201FFFF
(1739920510.976107) can0 09F8031C#6250BA1600B4FEFF
(1739920510.977136) can0 09F8041C#6250C43CF3000000
(1739920511.074660) can0 09F8021C#62FC3CF3C201FFFF
(1739920511.075220) can0 09F8031C#6264681C0061FEFF
(1739920511.076080) can0 09F8041C#6264C43CF3000000
(1739920511.175228) can0 09F8021C#62FC3CF3C201FFFF
(1739920511.175787) can0 09F8031C#62781722000EFEFF
(1739920511.176348) can0 09F8041C#6278C43CF3000000
(1739920511.274662) can0 09F8021C#62FC3CF3C201FFFF
(1739920511.275215) can0 09F8031C#628CC52700BBFDFF
(1739920511.276361) can0 09F8041C#628CC43CF3000000
(1739920511.375504) can0 09F8021C#62FC3CF3C201FFFF
(1739920511.376060) can0 09F8031C#62A1742D0068FDFF
(1739920511.377188) can0 09F8041C#62A1C43CF3000000
(1739920511.474619) can0 09F8021C#62FC3CF3C201FFFF
(1739920511.475190) can0 09F8031C#62B423330015FDFF
(1739920511.476053) can0 09F8041C#62B4C43CF3000000
(1739920511.574607) can0 09F8021C#62FC3CF3C201FFFF
(1739920511.575158) can0 09F8031C#62C8D13800C2FCFF
(1739920511.576286) can0 09F8041C#62C8C43CF3000000
(1739920511.577979) can0 15F8051C#402F631101CB48D1
(1739920511.579082) can0 15F8051C#4128B08C2534B66B
(1739920511.580182) can0 15F8051C#42C7FE0049D1C99E
(1739920511.581834) can0 15F8051C#4368A0EC00000000
(1739920511.582567) can0 15F8051C#440000000040000E
(1739920511.583166) can0 15F8051C#4550009600000000
(1739920511.584691) can0 15F8051C#460001A008F401FF
(1739920511.674668) can0 09F8021C#63FC3CF3C201FFFF
(1739920511.675224) can0 09F8031C#6314AE0500ADFFFF
(1739920511.676359) can0 09F8041C#6314C43CF3000000
(1739920511.775491) can0 09F8021C#63FC3CF3C201FFFF
(1739920511.776043) can0 09F8031C#63285D0B005AFFFF
(1739920511.777095) can0 09F8041C#6328C43CF3000000
(1739920511.874611) can0 09F8021C#63FC3CF3C201FFFF
(1739920511.875168) can0 09F8031C#633D0B110007FFFF
(1739920511.876041) can0 09F8041C#633DC43CF3000000
(1739920511.974632) can0 09F8021C#63FC3CF3C201FFFF
(1739920511.975178) can0 09F8031C#6350BA1600B4FEFF
(1739920511.976284) can0 09F8041C#6350C43CF3000000
(1739920512.074612) can0 09F8021C#63FC3CF3C201FFFF
(1739920512.075169) can0 09F8031C#6364681C0061FEFF
(1739920512.076033) can0 09F8041C#6364C43CF3000000
(1739920512.176296) can0 09F8021C#63FC3CF3C201FFFF
(1739920512.176856) can0 09F8031C#63781722000EFEFF
(1739920512.177980) can0 09F8041C#6378C43CF3000000
(1739920512.274634) can0 09F8021C#63FC3CF3C201FFFF
(1739920512.275173) can0 09F8031C#638CC52700BBFDFF
(1739920512.276312) can0 09F8041C#638CC43CF3000000
(1739920512.374595) can0 09F8021C#63FC3CF3C201FFFF
(1739920512.375143) can0 09F8031C#63A1742D0068FDFF
(1739920512.376370) can0 09F8041C#63A1C43CF3000000
(1739920512.474570) can0 09F8021C#63FC3CF3C201FFFF
(1739920512.475122) can0 09F8031C#63B423330015FDFF
(1739920512.476020) can0 09F8041C#63B4C43CF3000000
(1739920512.575486) can0 09F8021C#63FC3CF3C201FFFF
(1739920512.576021) can0 09F8031C#63C8D13800C2FCFF
(1739920512.577063) can0 09F8041C#63C8C43CF3000000
(1739920512.578196) can0 15F8051C#602F641101DB6FD1
(1739920512.579300) can0 15F8051C#612860C43947146C
(1739920512.580426) can0 15F8051C#62C7FE00F3356B99
(1739920512.581540) can0 15F8051C#6368A0EC00000000
(1739920512.583227) can0 15F8051C#640000000040000E
(1739920512.584668) can0 15F8051C#6550009600000000
(1739920512.585809) can0 15F8051C#660001A008F401FF
(1739920512.674575) can0 09F8021C#64FC3CF3C201FFFF
(1739920512.675139) can0 09F8031C#6414AE0500ADFFFF
(1739920512.676010) can0 09F8041C#6414C43CF3000000
(1739920512.774585) can0 09F8021C#64FC3CF3C201FFFF
(1739920512.775142) can0 09F8031C#64285D0B005AFFFF
(1739920512.776261) can0 09F8041C#6428C43CF3000000
(1739920512.874580) can0 09F8021C#64FC3CF3C201FFFF
(1739920512.875135) can0 09F8031C#643D0B110007FFFF
(1739920512.875997) can0 09F8041C#643DC43CF3000000
(1739920512.975865) can0 09F8021C#64FC3CF3C201FFFF
(1739920512.976444) can0 09F8031C#6450BA1600B4FEFF
(1739920512.977034) can0 09F8041C#6450C43CF3000000
(1739920513.074550) can0 09F8021C#64FC3CF3C201FFFF
(1739920513.075098) can0 09F8031C#6464681C0061FEFF
(1739920513.076229) can0 09F8041C#6464C43CF3000000
(1739920513.174534) can0 09F8021C#64FC3CF3C201FFFF
(1739920513.175087) can0 09F8031C#64781722000EFEFF
(1739920513.176001) can0 09F8041C#6478C43CF3000000
(1739920513.275095) can0 09F8021C#64FC3CF3C201FFFF
(1739920513.275654) can0 09F8031C#648CC52700BBFDFF
(1739920513.276776) can0 09F8041C#648CC43CF3000000
(1739920513.375431) can0 09F8021C#64FC3CF3C201FFFF
(1739920513.375965) can0 09F8031C#64A1742D0068FDFF
(1739920513.377040) can0 09F8041C#64A1C43CF3000000
(1739920513.474521) can0 09F8021C#64FC3CF3C201FFFF
(1739920513.475077) can0 09F8031C#64B423330015FDFF
(1739920513.475980) can0 09F8041C#64B4C43CF3000000
(1739920513.574519) can0 09F8021C#64FC3CF3C201FFFF
(1739920513.575065) can0 09F8031C#64C8D13800C2FCFF
(1739920513.575982) can0 09F8041C#64C8C43CF3000000
(1739920513.577097) can0 15F8051C#C02F651101EB96D1
(1739920513.578223) can0 15F8051C#C12800FC4D5A726C
(1739920513.579341) can0 15F8051C#C2C7FE009C9A0C94
(1739920513.580474) can0 15F8051C#C368A0EC00000000
(1739920513.581601) can0 15F8051C#C40000000040000E
(1739920513.582710) can0 15F8051C#C550009600000000
(1739920513.584767) can0 15F8051C#C60001A008F401FF
(1739920513.674512) can0 09F8021C#65FC3CF3C201FFFF
(1739920513.675063) can0 09F8031C#6514AE0500ADFFFF
(1739920513.675956) can0 09F8041C#6514C43CF3000000
(1739920513.775428) can0 09F8021C#65FC3CF3C201FFFF
(1739920513.775980) can0 09F8031C#65285D0B005AFFFF
(1739920513.777008) can0 09F8041C#6528C43CF3000000
(1739920513.874494) can0 09F8021C#65FC3CF3C201FFFF
(1739920513.875051) can0 09F8031C#653D0B110007FFFF
(1739920513.875943) can0 09F8041C#653DC43CF3000000
(1739920513.974513) can0 09F8021C#65FC3CF3C201FFFF
(1739920513.975061) can0 09F8031C#6550BA1600B4FEFF
(1739920513.975950) can0 09F8041C#6550C43CF3000000
(1739920514.074509) can0 09F8021C#65FC3CF3C201FFFF
(1739920514.075068) can0 09F8031C#6564681C0061FEFF
(1739920514.075941) can0 09F8041C#6564C43CF3000000
(1739920514.175365) can0 09F8021C#65FC3CF3C201FFFF
(1739920514.175919) can0 09F8031C#65781722000EFEFF
(1739920514.176987) can0 09F8041C#6578C43CF3000000
(1739920514.274521) can0 09F8021C#65FC3CF3C201FFFF
(1739920514.275077) can0 09F8031C#658CC52700BBFDFF
(1739920514.276191) can0 09F8041C#658CC43CF3000000
(1739920514.374481) can0 09F8021C#65FC3CF3C201FFFF
(1739920514.375031) can0 09F8031C#65A1742D0068FDFF
(1739920514.375937) can0 09F8041C#65A1C43CF3000000
(1739920514.474470) can0 09F8021C#65FC3CF3C201FFFF
(1739920514.475024) can0 09F8031C#65B423330015FDFF
(1739920514.475917) can0 09F8041C#65B4C43CF3000000
(1739920514.575345) can0 09F8021C#65FC3CF3C201FFFF
(1739920514.575902) can0 09F8031C#65C8D13800C2FCFF
(1739920514.577440) can0 09F8041C#65C8C43CF3000000
(1739920514.578564) can0 15F8051C#E02F661101FBBDD1
(1739920514.579123) can0 15F8051C#E128A033626DD06C
(1739920514.579701) can0 15F8051C#E2C7FE0047FFAD8E
(1739920514.580841) can0 15F8051C#E368A0EC00000000
(1739920514.581973) can0 15F8051C#E40000000040000E
(1739920514.583065) can0 15F8051C#E550009600000000
(1739920514.584550) can0 15F8051C#E60001A008F401FF
(1739920514.674880) can0 09F8021C#66FC3CF3C201FFFF
(1739920514.675434) can0 09F8031C#6614AE0500ADFFFF
(1739920514.675990) can0 09F8041C#6614C43CF3000000
(1739920514.774476) can0 09F8021C#66FC3CF3C201FFFF
(1739920514.775026) can0 09F8031C#66285D0B005AFFFF
(1739920514.776151) can0 09F8041C#6628C43CF3000000
(1739920514.874468) can0 09F8021C#66FC3CF3C201FFFF
(1739920514.875012) can0 09F8031C#663D0B110007FFFF
(1739920514.875895) can0 09F8041C#663DC43CF3000000
(1739920514.975418) can0 09F8021C#66FC3CF3C201FFFF
(1739920514.975966) can0 09F8031C#6650BA1600B4FEFF
(1739920514.977024) can0 09F8041C#6650C43CF3000000
(1739920515.074462) can0 09F8021C#66FC3CF3C201FFFF
(1739920515.075016) can0 09F8031C#6664681C0061FEFF
(1739920515.075887) can0 09F8041C#6664C43CF3000000
(1739920515.174440) can0 09F8021C#66FC3CF3C201FFFF
(1739920515.174996) can0 09F8031C#66781722000EFEFF
(1739920515.176120) can0 09F8041C#6678C43CF3000000
(1739920515.274459) can0 09F8021C#66FC3CF3C201FFFF
(1739920515.275010) can0 09F8031C#668CC52700BBFDFF
(1739920515.275892) can0 09F8041C#668CC43CF3000000
(1739920515.375834) can0 09F8021C#66FC3CF3C201FFFF
(1739920515.376386) can0 09F8031C#66A1742D0068FDFF
(1739920515.377469) can0 09F8041C#66A1C43CF3000000
(1739920515.474938) can0 09F8021C#66FC3CF3C201FFFF
(1739920515.475490) can0 09F8031C#66B423330015FDFF
(1739920515.476046) can0 09F8041C#66B4C43CF3000000
(1739920515.574421) can0 09F8021C#66FC3CF3C201FFFF
(1739920515.574974) can0 09F8031C#66C8D13800C2FCFF
(1739920515.576103) can0 09F8041C#66C8C43CF3000000
(1739920515.577230) can0 15F8051C#002F6711010BE5D1
(1739920515.578909) can0 15F8051C#0128506B76802E6D
(1739920515.580051) can0 15F8051C#02C7FE00F0634F89
(1739920515.581167) can0 15F8051C#0368A0EC00000000
(1739920515.582282) can0 15F8051C#040000000040000E
(1739920515.582905) can0 15F8051C#0550009600000000
(1739920515.585073) can0 15F8051C#060001A008F401FF
(1739920515.674430) can0 09F8021C#67FC3CF3C201FFFF
(1739920515.674986) can0 09F8031C#6714AE0500ADFFFF
(1739920515.675860) can0 09F8041C#6714C43CF3000000
(1739920515.775309) can0 09F8021C#67FC3CF3C201FFFF
(1739920515.775864) can0 09F8031C#67285D0B005AFFFF
(1739920515.776912) can0 09F8041C#6728C43CF3000000
(1739920515.874405) can0 09F8021C#67FC3CF3C201FFFF
(1739920515.874963) can0 09F8031C#673D0B110007FFFF
(1739920515.875863) can0 09F8041C#673DC43CF3000000
(1739920515.974433) can0 09F8021C#67FC3CF3C201FFFF
(1739920515.974985) can0 09F8031C#6750BA1600B4FEFF
(1739920515.976287) can0 09F8041C#6750C43CF3000000
(1739920516.074400) can0 09F8021C#67FC3CF3C201FFFF
(1739920516.074957) can0 09F8031C#6764681C0061FEFF
(1739920516.075844) can0 09F8041C#6764C43CF3000000
(1739920516.175734) can0 09F8021C#67FC3CF3C201FFFF
(1739920516.176288) can0 09F8031C#67781722000EFEFF
(1739920516.176889) can0 09F8041C#6778C43CF3000000
(1739920516.274393) can0 09F8021C#67FC3CF3C201FFFF
(1739920516.274948) can0 09F8031C#678CC52700BBFDFF
(1739920516.275834) can0 09F8041C#678CC43CF3000000
(1739920516.374384) can0 09F8021C#67FC3CF3C201FFFF
(1739920516.374930) can0 09F8031C#67A1742D0068FDFF
(1739920516.375827) can0 09F8041C#67A1C43CF3000000
(1739920516.474389) can0 09F8021C#67FC3CF3C201FFFF
(1739920516.474947) can0 09F8031C#67B423330015FDFF
(1739920516.475822) can0 09F8041C#67B4C43CF3000000
(1739920516.575254) can0 09F8021C#67FC3CF3C201FFFF
(1739920516.575817) can0 09F8031C#67C8D13800C2FCFF
(1739920516.576898) can0 09F8041C#67C8C43CF3000000
(1739920516.578035) can0 15F8051C#202F6811011B0CD2
(1739920516.578585) can0 15F8051C#2128F0A28A938C6D
(1739920516.579219) can0 15F8051C#22C7FE0099C8F083
(1739920516.580286) can0 15F8051C#2368A0EC00000000
(1739920516.581412) can0 15F8051C#240000000040000E
(1739920516.582566) can0 15F8051C#2550009600000000
(1739920516.584463) can0 15F8051C#260001A008F401FF
(1739920516.674364) can0 09F8021C#68FC3CF3C201FFFF
(1739920516.674924) can0 09F8031C#6814AE0500ADFFFF
(1739920516.675825) can0 09F8041C#6814C43CF3000000
(1739920516.774392) can0 09F8021C#68FC3CF3C201FFFF
(1739920516.774949) can0 09F8031C#68285D0B005AFFFF
(1739920516.775816) can0 09F8041C#6828C43CF3000000
(1739920516.874362) can0 09F8021C#68FC3CF3C201FFFF
(1739920516.874920) can0 09F8031C#683D0B110007FFFF
(1739920516.875813) can0 09F8041C#683DC43CF3000000
(1739920516.975229) can0 09F8021C#68FC3CF3C201FFFF
(1739920516.975779) can0 09F8031C#6850BA1600B4FEFF
(1739920516.976911) can0 09F8041C#6850C43CF3000000
(1739920517.074343) can0 09F8021C#68FC3CF3C201FFFF
(1739920517.074904) can0 09F8031C#6864681C0061FEFF
(1739920517.075796) can0 09F8041C#6864C43CF3000000
(1739920517.174787) can0 09F8021C#68FC3CF3C201FFFF
(1739920517.175343) can0 09F8031C#68781722000EFEFF
(1739920517.175905) can0 09F8041C#6878C43CF3000000
(1739920517.274360) can0 09F8021C#68FC3CF3C201FFFF
(1739920517.274894) can0 09F8031C#688CC52700BBFDFF
(1739920517.275795) can0 09F8041C#688CC43CF3000000
(1739920517.375219) can0 09F8021C#68FC3CF3C201FFFF
(1739920517.375762) can0 09F8031C#68A1742D0068FDFF
(1739920517.376847) can0 09F8041C#68A1C43CF3000000
(1739920517.474345) can0 09F8021C#68FC3CF3C201FFFF
(1739920517.474891) can0 09F8031C#68B423330015FDFF
(1739920517.475779) can0 09F8041C#68B4C43CF3000000
(1739920517.574342) can0 09F8021C#68FC3CF3C201FFFF
(1739920517.574884) can0 09F8031C#68C8D13800C2FCFF
(1739920517.575771) can0 09F8041C#68C8C43CF3000000
(1739920517.576892) can0 15F8051C#402F6911012B33D2
(1739920517.577467) can0 15F8051C#412890DA9EA6EA6D
(1739920517.578036) can0 15F8051C#42C7FE00442D927E
(1739920517.579732) can0 15F8051C#4368A0EC00000000
(1739920517.580859) can0 15F8051C#440000000040000E
(1739920517.581965) can0 15F8051C#4550009600000000
(1739920517.582547) can0 15F8051C#460001A008F401FF
(1739920517.674321) can0 09F8021C#69FC3CF3C201FFFF
(1739920517.674874) can0 09F8031C#6914AE0500ADFFFF
(1739920517.675765) can0 09F8041C#6914C43CF3000000
(1739920517.775187) can0 09F8021C#69FC3CF3C201FFFF
(1739920517.775736) can0 09F8031C#69285D0B005AFFFF
(1739920517.776813) can0 09F8041C#6928C43CF3000000
(1739920517.874343) can0 09F8021C#69FC3CF3C201FFFF
(1739920517.874892) can0 09F8031C#693D0B110007FFFF
(1739920517.875759) can0 09F8041C#693DC43CF3000000
(1739920517.974309) can0 09F8021C#69FC3CF3C201FFFF
(1739920517.974851) can0 09F8031C#6950BA1600B4FEFF
(1739920517.975754) can0 09F8041C#6950C43CF3000000
(1739920518.074314) can0 09F8021C#69FC3CF3C201FFFF
(1739920518.074856) can0 09F8031C#6964681C0061FEFF
(1739920518.075751) can0 09F8041C#6964C43CF3000000
(1739920518.175210) can0 09F8021C#69FC3CF3C201FFFF
(1739920518.175770) can0 09F8031C#69781722000EFEFF
(1739920518.176795) can0 09F8041C#6978C43CF3000000
(1739920518.274293) can0 09F8021C#69FC3CF3C201FFFF
(1739920518.274838) can0 09F8031C#698CC52700BBFDFF
(1739920518.275966) can0 09F8041C#698CC43CF3000000
(1739920518.374282) can0 09F8021C#69FC3CF3C201FFFF
(1739920518.374838) can0 09F8031C#69A1742D0068FDFF
(1739920518.375748) can0 09F8041C#69A1C43CF3000000
(1739920518.474280) can0 09F8021C#69FC3CF3C201FFFF
(1739920518.474831) can0 09F8031C#69B423330015FDFF
(1739920518.475727) can0 09F8041C#69B4C43CF3000000
(1739920518.575188) can0 09F8021C#69FC3CF3C201FFFF
(1739920518.575726) can0 09F8031C#69C8D13800C2FCFF
(1739920518.576970) can0 09F8041C#69C8C43CF3000000
(1739920518.578090) can0 15F8051C#802F6A11013B5AD2
(1739920518.578655) can0 15F8051C#81284012B3B9486E
(1739920518.579211) can0 15F8051C#82C7FE00ED913379
(1739920518.579795) can0 15F8051C#8368A0EC00000000
(1739920518.580483) can0 15F8051C#840000000040000E
(1739920518.580968) can0 15F8051C#8550009600000000
(1739920518.583581) can0 15F8051C#860001A008F401FF
(1739920518.675405) can0 09F8021C#6AFC3CF3C201FFFF
(1739920518.675480) can0 09F8031C#6A14AE0500ADFFFF
(1739920518.676452) can0 09F8041C#6A14C43CF3000000
(1739920518.774281) can0 09F8021C#6AFC3CF3C201FFFF
(1739920518.774831) can0 09F8031C#6A285D0B005AFFFF
(1739920518.775953) can0 09F8041C#6A28C43CF3000000
(1739920518.874267) can0 09F8021C#6AFC3CF3C201FFFF
(1739920518.874821) can0 09F8031C#6A3D0B110007FFFF
(1739920518.875708) can0 09F8041C#6A3DC43CF3000000
(1739920518.975133) can0 09F8021C#6AFC3CF3C201FFFF
(1739920518.975678) can0 09F8031C#6A50BA1600B4FEFF
(1739920518.976801) can0 09F8041C#6A50C43CF3000000
(1739920519.074274) can0 09F8021C#6AFC3CF3C201FFFF
(1739920519.074827) can0 09F8031C#6A64681C0061FEFF
(1739920519.075703) can0 09F8041C#6A64C43CF3000000
(1739920519.174233) can0 09F8021C#6AFC3CF3C201FFFF
(1739920519.174786) can0 09F8031C#6A781722000EFEFF
(1739920519.175693) can0 09F8041C#6A78C43CF3000000
(1739920519.274242) can0 09F8021C#6AFC3CF3C201FFFF
(1739920519.274883) can0 09F8031C#6A8CC52700BBFDFF
(1739920519.275769) can0 09F8041C#6A8CC43CF3000000
(1739920519.375122) can0 09F8021C#6AFC3CF3C201FFFF
(1739920519.375678) can0 09F8031C#6AA1742D0068FDFF
(1739920519.376761) can0 09F8041C#6AA1C43CF3000000
(1739920519.474234) can0 09F8021C#6AFC3CF3C201FFFF
(1739920519.474778) can0 09F8031C#6AB423330015FDFF
(1739920519.475915) can0 09F8041C#6AB4C43CF3000000
(1739920519.574305) can0 09F8021C#6AFC3CF3C201FFFF
(1739920519.574851) can0 09F8031C#6AC8D13800C2FCFF
(1739920519.575924) can0 09F8041C#6AC8C43CF3000000
(1739920519.577051) can0 15F8051C#A02F6B11014B81D2
(1739920519.578727) can0 15F8051C#A128E049C7CCA66E
(1739920519.579842) can0 15F8051C#A2C7FE0098F6D473
(1739920519.580945) can0 15F8051C#A368A0EC00000000
(1739920519.581669) can0 15F8051C#A40000000040000E
(1739920519.582571) can0 15F8051C#A550009600000000
(1739920519.584307) can0 15F8051C#A60001A008F401FF
(1739920519.674264) can0 09F8021C#6BFC3CF3C201FFFF
(1739920519.674818) can0 09F8031C#6B14AE0500ADFFFF
(1739920519.675674) can0 09F8041C#6B14C43CF3000000
(1739920519.775256) can0 09F8021C#6BFC3CF3C201FFFF
(1739920519.775799) can0 09F8031C#6B285D0B005AFFFF
(1739920519.776744) can0 09F8041C#6B28C43CF3000000
(1739920519.874236) can0 09F8021C#6BFC3CF3C201FFFF
(1739920519.874789) can0 09F8031C#6B3D0B110007FFFF
(1739920519.875666) can0 09F8041C#6B3DC43CF3000000
(1739920519.974250) can0 09F8021C#6BFC3CF3C201FFFF
(1739920519.974797) can0 09F8031C#6B50BA1600B4FEFF
(1739920519.975654) can0 09F8041C#6B50C43CF3000000
(1739920520.074209) can0 09F8021C#6BFC3CF3C201FFFF
(1739920520.074759) can0 09F8031C#6B64681C0061FEFF
(1739920520.075662) can0 09F8041C#6B64C43CF3000000
(1739920520.175119) can0 09F8021C#6BFC3CF3C201FFFF
(1739920520.175639) can0 09F8031C#6B781722000EFEFF
(1739920520.176715) can0 09F8041C#6B78C43CF3000000
(1739920520.274229) can0 09F8021C#6BFC3CF3C201FFFF
(1739920520.274781) can0 09F8031C#6B8CC52700BBFDFF
(1739920520.275767) can0 09F8041C#6B8CC43CF3000000
(1739920520.374184) can0 09F8021C#6BFC3CF3C201FFFF
(1739920520.374735) can0 09F8031C#6BA1742D0068FDFF
(1739920520.375666) can0 09F8041C#6BA1C43CF3000000
(1739920520.474190) can0 09F8021C#6BFC3CF3C201FFFF
(1739920520.474754) can0 09F8031C#6BB423330015FDFF
(1739920520.475659) can0 09F8041C#6BB4C43CF3000000
(1739920520.575064) can0 09F8021C#6BFC3CF3C201FFFF
(1739920520.575621) can0 09F8031C#6BC8D13800C2FCFF
(1739920520.576712) can0 09F8041C#6BC8C43CF3000000
(1739920520.578381) can0 15F8051C#C02F6C11015BA8D2
(1739920520.579478) can0 15F8051C#C1288081DBDF046F
(1739920520.580571) can0 15F8051C#C2C7FE00415B766E
(1739920520.581201) can0 15F8051C#C368A0EC00000000
(1739920520.581811) can0 15F8051C#C40000000040000E
(1739920520.582408) can0 15F8051C#C550009600000000
(1739920520.584305) can0 15F8051C#C60001A008F401FF
(1739920520.674180) can0 09F8021C#6CFC3CF3C201FFFF
(1739920520.674742) can0 09F8031C#6C14AE0500ADFFFF
(1739920520.675649) can0 09F8041C#6C14C43CF3000000
(1739920520.774197) can0 09F8021C#6CFC3CF3C201FFFF
(1739920520.774753) can0 09F8031C#6C285D0B005AFFFF
(1739920520.775626) can0 09F8041C#6C28C43CF3000000
(1739920520.874179) can0 09F8021C#6CFC3CF3C201FFFF
(1739920520.874730) can0 09F8031C#6C3D0B110007FFFF
(1739920520.875628) can0 09F8041C#6C3DC43CF3000000
(1739920520.975044) can0 09F8021C#6CFC3CF3C201FFFF
(1739920520.975601) can0 09F8031C#6C50BA1600B4FEFF
(1739920520.976664) can0 09F8041C#6C50C43CF3000000
(1739920521.074192) can0 09F8021C#6CFC3CF3C201FFFF
(1739920521.074754) can0 09F8031C#6C64681C0061FEFF
(1739920521.075620) can0 09F8041C#6C64C43CF3000000
(1739920521.174330) can0 09F8021C#6CFC3CF3C201FFFF
(1739920521.174888) can0 09F8031C#6C781722000EFEFF
(1739920521.175611) can0 09F8041C#6C78C43CF3000000
(1739920521.274184) can0 09F8021C#6CFC3CF3C201FFFF
(1739920521.274739) can0 09F8031C#6C8CC52700BBFDFF
(1739920521.275862) can0 09F8041C#6C8CC43CF3000000
(1739920521.375034) can0 09F8021C#6CFC3CF3C201FFFF
(1739920521.375582) can0 09F8031C#6CA1742D0068FDFF
(1739920521.376718) can0 09F8041C#6CA1C43CF3000000
(1739920521.474136) can0 09F8021C#6CFC3CF3C201FFFF
(1739920521.474691) can0 09F8031C#6CB423330015FDFF
(1739920521.475606) can0 09F8041C#6CB4C43CF3000000
(1739920521.574134) can0 09F8021C#6CFC3CF3C201FFFF
(1739920521.574683) can0 09F8031C#6CC8D13800C2FCFF
(1739920521.575583) can0 09F8041C#6CC8C43CF3000000
(1739920521.577279) can0 15F8051C#E02F6D11016BCFD2
(1739920521.578376) can0 15F8051C#E12830B9EFF2626F
(1739920521.579478) can0 15F8051C#E2C7FE00EBBF1769
(1739920521.580064) can0 15F8051C#E368A0EC00000000
(1739920521.580648) can0 15F8051C#E40000000040000E
(1739920521.581333) can0 15F8051C#E550009600000000
(1739920521.581993) can0 15F8051C#E60001A008F401FF
(1739920521.674154) can0 09F8021C#6DFC3CF3C201FFFF
(1739920521.674710) can0 09F8031C#6D14AE0500ADFFFF
(1739920521.675577) can0 09F8041C#6D14C43CF3000000
(1739920521.775018) can0 09F8021C#6DFC3CF3C201FFFF
(1739920521.775577) can0 09F8031C#6D285D0B005AFFFF
(1739920521.776693) can0 09F8041C#6D28C43CF3000000
(1739920521.874204) can0 09F8021C#6DFC3CF3C201FFFF
(1739920521.875575) can0 09F8031C#6D3D0B110007FFFF
(1739920521.876130) can0 09F8041C#6D3DC43CF3000000
(1739920521.974165) can0 09F8021C#6DFC3CF3C201FFFF
(1739920521.974703) can0 09F8031C#6D50BA1600B4FEFF
(1739920521.975574) can0 09F8041C#6D50C43CF3000000
(1739920522.074133) can0 09F8021C#6DFC3CF3C201FFFF
(1739920522.074689) can0 09F8031C#6D64681C0061FEFF
(1739920522.075557) can0 09F8041C#6D64C43CF3000000
(1739920522.175795) can0 09F8021C#6DFC3CF3C201FFFF
(1739920522.176429) can0 09F8031C#6D781722000EFEFF
(1739920522.177302) can0 09F8041C#6D78C43CF3000000
(1739920522.274115) can0 09F8021C#6DFC3CF3C201FFFF
(1739920522.274656) can0 09F8031C#6D8CC52700BBFDFF
(1739920522.275786) can0 09F8041C#6D8CC43CF3000000
(1739920522.374106) can0 09F8021C#6DFC3CF3C201FFFF
(1739920522.374658) can0 09F8031C#6DA1742D0068FDFF
(1739920522.375629) can0 09F8041C#6DA1C43CF3000000
(1739920522.474104) can0 09F8021C#6DFC3CF3C201FFFF
(1739920522.474647) can0 09F8031C#6DB423330015FDFF
(1739920522.475542) can0 09F8041C#6DB4C43CF3000000
(1739920522.574970) can0 09F8021C#6DFC3CF3C201FFFF
(1739920522.575522) can0 09F8031C#6DC8D13800C2FCFF
(1739920522.576604) can0 09F8041C#6DC8C43CF3000000
(1739920522.577722) can0 15F8051C#002F6E11017BF6D2
(1739920522.578852) can0 15F8051C#0128D0F00306C16F
(1739920522.579959) can0 15F8051C#02C7FE009524B963
(1739920522.581114) can0 15F8051C#0368A0EC00000000
(1739920522.582229) can0 15F8051C#040000000040000E
(1739920522.584496) can0 15F8051C#0550009600000000
(1739920522.585623) can0 15F8051C#060001A008F401FF
(1739920522.674110) can0 09F8021C#6EFC3CF3C201FFFF
(1739920522.674669) can0 09F8031C#6E14AE0500ADFFFF
(1739920522.675532) can0 09F8041C#6E14C43CF3000000
(1739920522.774082) can0 09F8021C#6EFC3CF3C201FFFF
(1739920522.774630) can0 09F8031C#6E285D0B005AFFFF
(1739920522.775760) can0 09F8041C#6E28C43CF3000000
(1739920522.874121) can0 09F8021C#6EFC3CF3C201FFFF
(1739920522.874676) can0 09F8031C#6E3D0B110007FFFF
(1739920522.875772) can0 09F8041C#6E3DC43CF3000000
(1739920522.975495) can0 09F8021C#6EFC3CF3C201FFFF
(1739920522.976051) can0 09F8031C#6E50BA1600B4FEFF
(1739920522.976619) can0 09F8041C#6E50C43CF3000000
(1739920523.074061) can0 09F8021C#6EFC3CF3C201FFFF
(1739920523.074618) can0 09F8031C#6E64681C0061FEFF
(1739920523.075509) can0 09F8041C#6E64C43CF3000000
(1739920523.174093) can0 09F8021C#6EFC3CF3C201FFFF
(1739920523.174646) can0 09F8031C#6E781722000EFEFF
(1739920523.175506) can0 09F8041C#6E78C43CF3000000
(1739920523.274062) can0 09F8021C#6EFC3CF3C401FFFF
(1739920523.274620) can0 09F8031C#6E8CC92700BBFDFF
(1739920523.275508) can0 09F8041C#6E8CC43CF3000000
(1739920523.375367) can0 09F8021C#6EFC3CF3C101FFFF
(1739920523.375917) can0 09F8031C#6EA1772D0068FDFF
(1739920523.377050) can0 09F8041C#6EA1C43CF3000000
(1739920523.474051) can0 09F8021C#6EFC3CF3C101FFFF
(1739920523.474605) can0 09F8031C#6EB421330015FDFF
(1739920523.475516) can0 09F8041C#6EB4C43CF3000000
(1739920523.574045) can0 09F8021C#6EFC3CF3C201FFFF
(1739920523.574620) can0 09F8031C#6EC8D03800C2FCFF
(1739920523.575492) can0 09F8041C#6EC8C43CF3000000
(1739920523.576666) can0 15F8051C#602F6F11018B1DD3
(1739920523.578303) can0 15F8051C#612840FDA3161F70
(1739920523.579403) can0 15F8051C#62C7FE0052AE5A5E
(1739920523.580548) can0 15F8051C#6368A0EC00000000
(1739920523.581668) can0 15F8051C#640000000040000E
(1739920523.582282) can0 15F8051C#6550009600000000
(1739920523.584162) can0 15F8051C#660001A008F401FF
(1739920523.674100) can0 09F8021C#6FFC3CF3C201FFFF
(1739920523.674648) can0 09F8031C#6F14AF0500ADFFFF
(1739920523.675496) can0 09F8041C#6F14C43CF3000000
(1739920523.774930) can0 09F8021C#6FFC3CF3C401FFFF
(1739920523.775477) can0 09F8031C#6F28610B005AFFFF
(1739920523.776588) can0 09F8041C#6F28C43CF3000000
(1739920523.874061) can0 09F8021C#6FFC3CF3C101FFFF
(1739920523.874619) can0 09F8031C#6F3D10110007FFFF
(1739920523.875477) can0 09F8041C#6F3DC43CF3000000
(1739920523.974056) can0 09F8021C#6FFC3CF3C101FFFF
(1739920523.974607) can0 09F8031C#6F50B91600B4FEFF
(1739920523.975468) can0 09F8041C#6F50C43CF3000000
(1739920524.074067) can0 09F8021C#6FFC3CF3C201FFFF
(1739920524.074622) can0 09F8031C#6F64681C0061FEFF
(1739920524.075470) can0 09F8041C#6F64C43CF3000000
(1739920524.174923) can0 09F8021C#6FFC3CF3C201FFFF
(1739920524.175485) can0 09F8031C#6F781822000EFEFF
(1739920524.176518) can0 09F8041C#6F78C43CF3000000
(1739920524.274026) can0 09F8021C#6FFC3CF3C201FFFF
(1739920524.274578) can0 09F8031C#6F8CC72700BBFDFF
(1739920524.275885) can0 09F8041C#6F8CC43CF3000000
(1739920524.374039) can0 09F8021C#6FFC3CF3C201FFFF
(1739920524.374591) can0 09F8031C#6FA1752D0068FDFF
(1739920524.375573) can0 09F8041C#6FA1C43CF3000000
(1739920524.474021) can0 09F8021C#6FFC3CF3C201FFFF
(1739920524.474580) can0 09F8031C#6FB424330015FDFF
(1739920524.475462) can0 09F8041C#6FB4C43CF3000000
(1739920524.574895) can0 09F8021C#6FFC3CF3C201FFFF
(1739920524.575447) can0 09F8031C#6FC8D33800C2FCFF
(1739920524.576504) can0 09F8041C#6FC8C43CF3000000
(1739920524.578193) can0 15F8051C#802F7011019B44D3
(1739920524.579322) can0 15F8051C#8128B06F172C7D70
(1739920524.580440) can0 15F8051C#82C7FE00E8EDFB58
(1739920524.581551) can0 15F8051C#8368A0EC00000000
(1739920524.582165) can0 15F8051C#840000000040000E
(1739920524.584086) can0 15F8051C#8550009600000000
(1739920524.584662) can0 15F8051C#860001A008F401FF
(1739920524.673994) can0 09F8021C#70FC3CF3C201FFFF
(1739920524.674549) can0 09F8031C#7014AE0500ADFFFF
(1739920524.675442) can0 09F8041C#7014C43CF3000000
(1739920524.774011) can0 09F8021C#70FC3CF3C201FFFF
(1739920524.774566) can0 09F8031C#70285D0B005AFFFF
(1739920524.775699) can0 09F8041C#7028C43CF3000000
(1739920524.874023) can0 09F8021C#70FC3CF3C201FFFF
(1739920524.874580) can0 09F8031C#703D0B110007FFFF
(1739920524.875431) can0 09F8041C#703DC43CF3000000
(1739920524.974880) can0 09F8021C#70FC3CF3C201FFFF
(1739920524.975433) can0 09F8031C#7050BA1600B4FEFF
(1739920524.976570) can0 09F8041C#7050C43CF3000000
(1739920525.073983) can0 09F8021C#70FC3CF3C201FFFF
(1739920525.074538) can0 09F8031C#7064681C0061FEFF
(1739920525.075659) can0 09F8041C#7064C43CF3000000
(1739920525.173990) can0 09F8021C#70FC3CF3C201FFFF
(1739920525.174539) can0 09F8031C#70781722000EFEFF
(1739920525.175914) can0 09F8041C#7078C43CF3000000
(1739920525.274338) can0 09F8021C#70FC3CF3C201FFFF
(1739920525.274885) can0 09F8031C#708CC62700BBFDFF
(1739920525.276024) can0 09F8041C#708CC43CF3000000
(1739920525.375882) can0 09F8021C#70FC3CF3C201FFFF
(1739920525.376433) can0 09F8031C#70A1742D0068FDFF
(1739920525.377153) can0 09F8041C#70A1C43CF3000000
(1739920525.473963) can0 09F8021C#70FC3CF3C201FFFF
(1739920525.474510) can0 09F8031C#70B423330015FDFF
(1739920525.475644) can0 09F8041C#70B4C43CF3000000
(1739920525.573956) can0 09F8021C#70FC3CF3C201FFFF
(1739920525.574510) can0 09F8031C#70C8D13800C2FCFF
(1739920525.575651) can0 09F8041C#70C8C43CF3000000
(1739920525.576774) can0 15F8051C#A02F711101AB6BD3
(1739920525.577337) can0 15F8051C#A128C097403FDB70
(1739920525.577914) can0 15F8051C#A2C7FE0092529D53
(1739920525.578482) can0 15F8051C#A368A0EC00000000
(1739920525.579625) can0 15F8051C#A40000000040000E
(1739920525.580475) can0 15F8051C#A550009600000000
(1739920525.581617) can0 15F8051C#A60001A008F401FF
(1739920525.673956) can0 09F8021C#71FC3CF3C201FFFF
(1739920525.674514) can0 09F8031C#7114AE0500ADFFFF
(1739920525.675646) can0 09F8041C#7114C43CF3000000
(1739920525.774855) can0 09F8021C#71FC3CF3C201FFFF
(1739920525.775406) can0 09F8031C#71285D0B005AFFFF
(1739920525.776529) can0 09F8041C#7128C43CF3000000
(1739920525.873955) can0 09F8021C#71FC3CF3C201FFFF
(1739920525.874498) can0 09F8031C#713D0B110007FFFF
(1739920525.875637) can0 09F8041C#713DC43CF3000000
(1739920525.974260) can0 09F8021C#71FC3CF3C201FFFF
(1739920525.974808) can0 09F8031C#7150BA1600B4FEFF
(1739920525.975627) can0 09F8041C#7150C43CF3000000
(1739920526.073996) can0 09F8021C#71FC3CF3C201FFFF
(1739920526.074551) can0 09F8031C#7164681C0061FEFF
(1739920526.075987) can0 09F8041C#7164C43CF3000000
(1739920526.174827) can0 09F8021C#71FC3CF3C201FFFF
(1739920526.175381) can0 09F8031C#71781722000EFEFF
(1739920526.176421) can0 09F8041C#7178C43CF3000000
(1739920526.274266) can0 09F8021C#71FC3CF3C201FFFF
(1739920526.274822) can0 09F8031C#718CC52700BBFDFF
(1739920526.275378) can0 09F8041C#718CC43CF3000000
(1739920526.373951) can0 09F8021C#71FC3CF3C201FFFF
(1739920526.374502) can0 09F8031C#71A1742D0068FDFF
(1739920526.375371) can0 09F8041C#71A1C43CF3000000
(1739920526.473946) can0 09F8021C#71FC3CF3C201FFFF
(1739920526.474506) can0 09F8031C#71B423330015FDFF
(1739920526.475359) can0 09F8041C#71B4C43CF3000000
(1739920526.574949) can0 09F8021C#71FC3CF3C201FFFF
(1739920526.575438) can0 09F8031C#71C8D13800C2FCFF
(1739920526.576484) can0 09F8041C#71C8C43CF3000000
(1739920526.577534) can0 15F8051C#C02F721101BB92D3
(1739920526.578083) can0 15F8051C#C12860CF54523971
(1739920526.578658) can0 15F8051C#C2C7FE003CB73E4E
(1739920526.579236) can0 15F8051C#C368A0EC00000000
(1739920526.579821) can0 15F8051C#C40000000040000E
(1739920526.580961) can0 15F8051C#C550009600000000
(1739920526.582072) can0 15F8051C#C60001A008F401FF
(1739920526.673922) can0 09F8021C#72FC3CF3C201FFFF
(1739920526.674477) can0 09F8031C#7214AE0500ADFFFF
(1739920526.675349) can0 09F8041C#7214C43CF3000000
(1739920526.773896) can0 09F8021C#72FC3CF3C201FFFF
(1739920526.774447) can0 09F8031C#72285D0B005AFFFF
(1739920526.775571) can0 09F8041C#7228C43CF3000000
(1739920526.873910) can0 09F8021C#72FC3CF3C201FFFF
(1739920526.874465) can0 09F8031C#723D0B110007FFFF
(1739920526.875339) can0 09F8041C#723DC43CF3000000
(1739920526.974763) can0 09F8021C#72FC3CF3C201FFFF
(1739920526.975315) can0 09F8031C#7250BA1600B4FEFF
(1739920526.976406) can0 09F8041C#7250C43CF3000000
(1739920527.074175) can0 09F8021C#72FC3CF3C201FFFF
(1739920527.074735) can0 09F8031C#7264681C0061FEFF
(1739920527.075329) can0 09F8041C#7264C43CF3000000
(1739920527.173877) can0 09F8021C#72FC3CF3C201FFFF
(1739920527.174431) can0 09F8031C#72781722000EFEFF
(1739920527.175322) can0 09F8041C#7278C43CF3000000
(1739920527.274366) can0 09F8021C#72FC3CF3C201FFFF
(1739920527.274918) can0 09F8031C#728CC52700BBFDFF
(1739920527.276028) can0 09F8041C#728CC43CF3000000
(1739920527.374833) can0 09F8021C#72FC3CF3C201FFFF
(1739920527.375375) can0 09F8031C#72A1742D0068FDFF
(1739920527.376428) can0 09F8041C#72A1C43CF3000000
(1739920527.473861) can0 09F8021C#72FC3CF3C201FFFF
(1739920527.474414) can0 09F8031C#72B423330015FDFF
(1739920527.475317) can0 09F8041C#72B4C43CF3000000
(1739920527.573856) can0 09F8021C#72FC3CF3C201FFFF
(1739920527.574405) can0 09F8031C#72C8D13800C2FCFF
(1739920527.575304) can0 09F8041C#72C8C43CF3000000
(1739920527.577415) can0 15F8051C#E02F731101CBB9D3
(1739920527.578508) can0 15F8051C#E128100769659771
(1739920527.579606) can0 15F8051C#E2C7FE00E51BE048
(1739920527.580188) can0 15F8051C#E368A0EC00000000
(1739920527.580778) can0 15F8051C#E40000000040000E
(1739920527.581380) can0 15F8051C#E550009600000000
(1739920527.581984) can0 15F8051C#E60001A008F401FF
(1739920527.673852) can0 09F8021C#73FC3CF3C201FFFF
(1739920527.674410) can0 09F8031C#7314AE0500ADFFFF
(1739920527.675295) can0 09F8041C#7314C43CF3000000
(1739920527.774741) can0 09F8021C#73FC3CF3C201FFFF
(1739920527.775292) can0 09F8031C#73285D0B005AFFFF
(1739920527.776411) can0 09F8041C#7328C43CF3000000
(1739920527.873882) can0 09F8021C#73FC3CF3C201FFFF
(1739920527.874445) can0 09F8031C#733D0B110007FFFF
(1739920527.875286) can0 09F8041C#733DC43CF3000000
(1739920527.973844) can0 09F8021C#73FC3CF3C201FFFF
(1739920527.974396) can0 09F8031C#7350BA1600B4FEFF
(1739920527.975291) can0 09F8041C#7350C43CF3000000
(1739920528.073867) can0 09F8021C#73FC3CF3C201FFFF
(1739920528.074418) can0 09F8031C#7364681C0061FEFF
(1739920528.075280) can0 09F8041C#7364C43CF3000000
(1739920528.174713) can0 09F8021C#73FC3CF3C201FFFF
(1739920528.175274) can0 09F8031C#73781722000EFEFF
(1739920528.176398) can0 09F8041C#7378C43CF3000000
(1739920528.273919) can0 09F8021C#73FC3CF3C201FFFF
(1739920528.274402) can0 09F8031C#738CC52700BBFDFF
(1739920528.275272) can0 09F8041C#738CC43CF3000000
(1739920528.373830) can0 09F8021C#73FC3CF3C201FFFF
(1739920528.374385) can0 09F8031C#73A1742D0068FDFF
(1739920528.375501) can0 09F8041C#73A1C43CF3000000
(1739920528.474450) can0 09F8021C#73FC3CF3C201FFFF
(1739920528.475002) can0 09F8031C#73B423330015FDFF
(1739920528.476080) can0 09F8041C#73B4C43CF3000000
(1739920528.575226) can0 09F8021C#73FC3CF3C201FFFF
(1739920528.575781) can0 09F8031C#73C8D13800C2FCFF
(1739920528.576361) can0 09F8041C#73C8C43CF3000000
(1739920528.577479) can0 15F8051C#202F741101DBE0D3
(1739920528.578605) can0 15F8051C#2128B03E7D78F571
(1739920528.579730) can0 15F8051C#22C7FE008F808143
(1739920528.580845) can0 15F8051C#2368A0EC00000000
(1739920528.581965) can0 15F8051C#240000000040000E
(1739920528.584154) can0 15F8051C#2550009600000000
(1739920528.585352) can0 15F8051C#260001A008F401FF
(1739920528.673811) can0 09F8021C#74FC3CF3C201FFFF
(1739920528.674375) can0 09F8031C#7414AE0500ADFFFF
(1739920528.675261) can0 09F8041C#7414C43CF3000000
(1739920528.773800) can0 09F8021C#74FC3CF3C201FFFF
(1739920528.774349) can0 09F8031C#74285D0B005AFFFF
(1739920528.775252) can0 09F8041C#7428C43CF3000000
(1739920528.873814) can0 09F8021C#74FC3CF3C201FFFF
(1739920528.874373) can0 09F8031C#743D0B110007FFFF
(1739920528.875492) can0 09F8041C#743DC43CF3000000
(1739920528.974684) can0 09F8021C#74FC3CF3C201FFFF
(1739920528.975233) can0 09F8031C#7450BA1600B4FEFF
(1739920528.976292) can0 09F8041C#7450C43CF3000000
(1739920529.073791) can0 09F8021C#74FC3CF3C201FFFF
(1739920529.074344) can0 09F8031C#7464681C0061FEFF
(1739920529.075237) can0 09F8041C#7464C43CF3000000
(1739920529.173812) can0 09F8021C#74FC3CF3C201FFFF
(1739920529.174368) can0 09F8031C#74781722000EFEFF
(1739920529.175230) can0 09F8041C#7478C43CF3000000
(1739920529.273783) can0 09F8021C#74FC3CF3C201FFFF
(1739920529.274329) can0 09F8031C#748CC52700BBFDFF
(1739920529.275454) can0 09F8041C#748CC43CF3000000
(1739920529.374678) can0 09F8021C#74FC3CF3C201FFFF
(1739920529.375229) can0 09F8031C#74A1742D0068FDFF
(1739920529.376471) can0 09F8041C#74A1C43CF3000000
(1739920529.473775) can0 09F8021C#74FC3CF3C201FFFF
(1739920529.474326) can0 09F8031C#74B423330015FDFF
(1739920529.475224) can0 09F8041C#74B4C43CF3000000
(1739920529.573764) can0 09F8021C#74FC3CF3C201FFFF
(1739920529.574320) can0 09F8031C#74C8D13800C2FCFF
(1739920529.575214) can0 09F8041C#74C8C43CF3000000
(1739920529.576441) can0 15F8051C#402F751101EB07D4
(1739920529.576904) can0 15F8051C#41285076918B5372
(1739920529.577477) can0 15F8051C#42C7FE0039E5223E
(1739920529.578055) can0 15F8051C#4368A0EC00000000
(1739920529.578648) can0 15F8051C#440000000040000E
(1739920529.579225) can0 15F8051C#4550009600000000
(1739920529.579804) can0 15F8051C#460001A008F401FF
(1739920529.673796) can0 09F8021C#75FC3CF3C201FFFF
(1739920529.674350) can0 09F8031C#7514AE0500ADFFFF
(1739920529.675206) can0 09F8041C#7514C43CF3000000
(1739920529.774640) can0 09F8021C#75FC3CF3C201FFFF
(1739920529.775196) can0 09F8031C#75285D0B005AFFFF
(1739920529.776259) can0 09F8041C#7528C43CF3000000
(1739920529.873915) can0 09F8021C#75FC3CF3C201FFFF
(1739920529.874471) can0 09F8031C#753D0B110007FFFF
(1739920529.875448) can0 09F8041C#753DC43CF3000000
(1739920529.973755) can0 09F8021C#75FC3CF3C201FFFF
(1739920529.974299) can0 09F8031C#7550BA1600B4FEFF
(1739920529.975187) can0 09F8041C#7550C43CF3000000
(1739920530.073773) can0 09F8021C#75FC3CF3C201FFFF
(1739920530.074326) can0 09F8031C#7564681C0061FEFF
(1739920530.075187) can0 09F8041C#7564C43CF3000000
(1739920530.174658) can0 09F8021C#75FC3CF3C201FFFF
(1739920530.175216) can0 09F8031C#75781722000EFEFF
(1739920530.176239) can0 09F8041C#7578C43CF3000000
(1739920530.274075) can0 09F8021C#75FC3CF3C201FFFF
(1739920530.274629) can0 09F8031C#758CC52700BBFDFF
(1739920530.275184) can0 09F8041C#758CC43CF3000000
(1739920530.373784) can0 09F8021C#75FC3CF3C201FFFF
(1739920530.374331) can0 09F8031C#75A1742D0068FDFF
(1739920530.375461) can0 09F8041C#75A1C43CF3000000
(1739920530.473744) can0 09F8021C#75FC3CF3C201FFFF
(1739920530.474295) can0 09F8031C#75B423330015FDFF
(1739920530.475190) can0 09F8041C#75B4C43CF3000000
(1739920530.574605) can0 09F8021C#75FC3CF3C201FFFF
(1739920530.575155) can0 09F8031C#75C8D13800C2FCFF
(1739920530.576228) can0 09F8041C#75C8C43CF3000000
(1739920530.577347) can0 15F8051C#602F761101FB2ED4
(1739920530.577891) can0 15F8051C#6128F0ADA59EB172
(1739920530.578459) can0 15F8051C#62C7FE00E249C438
(1739920530.579039) can0 15F8051C#6368A0EC00000000
(1739920530.579635) can0 15F8051C#640000000040000E
(1739920530.580213) can0 15F8051C#6550009600000000
(1739920530.581339) can0 15F8051C#660001A008F401FF
(1739920530.673725) can0 09F8021C#76FC3CF3C201FFFF
(1739920530.674272) can0 09F8031C#7614AE0500ADFFFF
(1739920530.675165) can0 09F8041C#7614C43CF3000000
(1739920530.773718) can0 09F8021C#76FC3CF3C201FFFF
(1739920530.774265) can0 09F8031C#76285D0B005AFFFF
(1739920530.775157) can0 09F8041C#7628C43CF3000000
(1739920530.873759) can0 09F8021C#76FC3CF3C201FFFF
(1739920530.874310) can0 09F8031C#763D0B110007FFFF
(1739920530.875470) can0 09F8041C#763DC43CF3000000
(1739920530.974581) can0 09F8021C#76FC3CF3C201FFFF
(1739920530.975130) can0 09F8031C#7650BA1600B4FEFF
(1739920530.976202) can0 09F8041C#7650C43CF3000000
(1739920531.073719) can0 09F8021C#76FC3CF3C201FFFF
(1739920531.074278) can0 09F8031C#7664681C0061FEFF
(1739920531.075146) can0 09F8041C#7664C43CF3000000
(1739920531.173717) can0 09F8021C#76FC3CF3C201FFFF
(1739920531.174272) can0 09F8031C#76781722000EFEFF
(1739920531.175140) can0 09F8041C#7678C43CF3000000
(1739920531.274023) can0 09F8021C#76FC3CF3C201FFFF
(1739920531.274574) can0 09F8031C#768CC52700BBFDFF
(1739920531.275131) can0 09F8041C#768CC43CF3000000
(1739920531.374610) can0 09F8021C#76FC3CF3C201FFFF
(1739920531.375153) can0 09F8031C#76A1742D0068FDFF
(1739920531.376305) can0 09F8041C#76A1C43CF3000000
(1739920531.473689) can0 09F8021C#76FC3CF3C201FFFF
(1739920531.474245) can0 09F8031C#76B423330015FDFF
(1739920531.475135) can0 09F8041C#76B4C43CF3000000
(1739920531.573668) can0 09F8021C#76FC3CF3C201FFFF
(1739920531.574217) can0 09F8031C#76C8D13800C2FCFF
(1739920531.575118) can0 09F8041C#76C8C43CF3000000
(1739920531.576257) can0 15F8051C#802F7711010B56D4
(1739920531.576809) can0 15F8051C#8128B0E5B9B10F73
(1739920531.577386) can0 15F8051C#82C7FE008DAE6533
(1739920531.577969) can0 15F8051C#8368A0EC00000000
(1739920531.578558) can0 15F8051C#840000000040000E
(1739920531.579145) can0 15F8051C#8550009600000000
(1739920531.579725) can0 15F8051C#860001A008F401FF
(1739920531.673674) can0 09F8021C#77FC3CF3C201FFFF
(1739920531.674232) can0 09F8031C#7714AE0500ADFFFF
(1739920531.675135) can0 09F8041C#7714C43CF3000000
(1739920531.774532) can0 09F8021C#77FC3CF3C201FFFF
(1739920531.775082) can0 09F8031C#77285D0B005AFFFF
(1739920531.776166) can0 09F8041C#7728C43CF3000000
(1739920531.873697) can0 09F8021C#77FC3CF3C201FFFF
(1739920531.874255) can0 09F8031C#773D0B110007FFFF
(1739920531.875375) can0 09F8041C#773DC43CF3000000
(1739920531.973652) can0 09F8021C#77FC3CF3C201FFFF
(1739920531.974200) can0 09F8031C#7750BA1600B4FEFF
(1739920531.975319) can0 09F8041C#7750C43CF3000000
(1739920532.074450) can0 09F8021C#77FC3CF3C201FFFF
(1739920532.075004) can0 09F8031C#7764681C0061FEFF
(1739920532.076143) can0 09F8041C#7764C43CF3000000
(1739920532.174539) can0 09F8021C#77FC3CF3C201FFFF
(1739920532.175092) can0 09F8031C#77781722000EFEFF
(1739920532.176212) can0 09F8041C#7778C43CF3000000
(1739920532.273649) can0 09F8021C#77FC3CF3C201FFFF
(1739920532.274195) can0 09F8031C#778CC52700BBFDFF
(1739920532.275087) can0 09F8041C#778CC43CF3000000
(1739920532.373636) can0 09F8021C#77FC3CF3C201FFFF
(1739920532.374184) can0 09F8031C#77A1742D0068FDFF
(1739920532.375098) can0 09F8041C#77A1C43CF3000000
(1739920532.473636) can0 09F8021C#77FC3CF3C201FFFF
(1739920532.474181) can0 09F8031C#77B423330015FDFF
(1739920532.475083) can0 09F8041C#77B4C43CF3000000
(1739920532.575096) can0 09F8021C#77FC3CF3C201FFFF
(1739920532.576132) can0 09F8031C#77C8D13800C2FCFF
(1739920532.576710) can0 09F8041C#77C8C43CF3000000
(1739920532.578942) can0 15F8051C#A02F7811011B7DD4
(1739920532.580033) can0 15F8051C#A128501DCEC46D73
(1739920532.581124) can0 15F8051C#A2C7FE003613072E
(1739920532.581716) can0 15F8051C#A368A0EC00000000
(1739920532.583701) can0 15F8051C#A40000000040000E
(1739920532.584292) can0 15F8051C#A550009600000000
(1739920532.584871) can0 15F8051C#A60001A008F401FF
(1739920532.673650) can0 09F8021C#78FC3CF3C201FFFF
(1739920532.674207) can0 09F8031C#7814AE0500ADFFFF
(1739920532.675066) can0 09F8041C#7814C43CF3000000
(1739920532.773626) can0 09F8021C#78FC3CF3C201FFFF
(1739920532.774188) can0 09F8031C#78285D0B005AFFFF
(1739920532.775090) can0 09F8041C#7828C43CF3000000
(1739920532.873619) can0 09F8021C#78FC3CF3C201FFFF
(1739920532.874194) can0 09F8031C#783D0B110007FFFF
(1739920532.875065) can0 09F8041C#783DC43CF3000000
(1739920532.974492) can0 09F8021C#78FC3CF3C201FFFF
(1739920532.975044) can0 09F8031C#7850BA1600B4FEFF
(1739920532.976160) can0 09F8041C#7850C43CF3000000
(1739920533.073606) can0 09F8021C#78FC3CF3C201FFFF
(1739920533.074165) can0 09F8031C#7864681C0061FEFF
(1739920533.075050) can0 09F8041C#7864C43CF3000000
(1739920533.173594) can0 09F8021C#78FC3CF3C201FFFF
(1739920533.174158) can0 09F8031C#78781722000EFEFF
(1739920533.175058) can0 09F8041C#7878C43CF3000000
(1739920533.273637) can0 09F8021C#78FC3CF3C201FFFF
(1739920533.274175) can0 09F8031C#788CC52700BBFDFF
(1739920533.275042) can0 09F8041C#788CC43CF3000000
(1739920533.374465) can0 09F8021C#78FC3CF3C201FFFF
(1739920533.375014) can0 09F8031C#78A1742D0068FDFF
(1739920533.376092) can0 09F8041C#78A1C43CF3000000
(1739920533.473584) can0 09F8021C#78FC3CF3C201FFFF
(1739920533.474137) can0 09F8031C#78B423330015FDFF
(1739920533.475031) can0 09F8041C#78B4C43CF3000000
(1739920533.573577) can0 09F8021C#78FC3CF3C201FFFF
(1739920533.574131) can0 09F8031C#78C8D13800C2FCFF
(1739920533.575027) can0 09F8041C#78C8C43CF3000000
(1739920533.576151) can0 15F8051C#002F7911012BA4D4
(1739920533.576727) can0 15F8051C#0128F054E2D7CB73
(1739920533.577309) can0 15F8051C#02C7FE00DF77A828
(1739920533.577884) can0 15F8051C#0368A0EC00000000
(1739920533.578487) can0 15F8051C#040000000040000E
(1739920533.579069) can0 15F8051C#0550009600000000
(1739920533.579644) can0 15F8051C#060001A008F401FF
(1739920533.673930) can0 09F8021C#79FC3CF3C201FFFF
(1739920533.674462) can0 09F8031C#7914AE0500ADFFFF
(1739920533.675023) can0 09F8041C#7914C43CF3000000
(1739920533.774466) can0 09F8021C#79FC3CF3C201FFFF
(1739920533.775006) can0 09F8031C#79285D0B005AFFFF
(1739920533.776070) can0 09F8041C#7928C43CF3000000
(1739920533.873557) can0 09F8021C#79FC3CF3C201FFFF
(1739920533.874114) can0 09F8031C#793D0B110007FFFF
(1739920533.875017) can0 09F8041C#793DC43CF3000000
(1739920533.973561) can0 09F8021C#79FC3CF3C201FFFF
(1739920533.974137) can0 09F8031C#7950BA1600B4FEFF
(1739920533.975010) can0 09F8041C#7950C43CF3000000
(1739920534.073560) can0 09F8021C#79FC3CF3C201FFFF
(1739920534.074117) can0 09F8031C#7964681C0061FEFF
(1739920534.075012) can0 09F8041C#7964C43CF3000000
(1739920534.174429) can0 09F8021C#79FC3CF3C201FFFF
(1739920534.174982) can0 09F8031C#79781722000EFEFF
(1739920534.176055) can0 09F8041C#7978C43CF3000000
(1739920534.273549) can0 09F8021C#79FC3CF3C201FFFF
(1739920534.274091) can0 09F8031C#798CC52700BBFDFF
(1739920534.274991) can0 09F8041C#798CC43CF3000000
(1739920534.373544) can0 09F8021C#79FC3CF3C201FFFF
(1739920534.374096) can0 09F8031C#79A1742D0068FDFF
(1739920534.375009) can0 09F8041C#79A1C43CF3000000
(1739920534.473562) can0 09F8021C#79FC3CF3C201FFFF
(1739920534.474116) can0 09F8031C#79B423330015FDFF
(1739920534.474993) can0 09F8041C#79B4C43CF3000000
(1739920534.574413) can0 09F8021C#79FC3CF3C201FFFF
(1739920534.574989) can0 09F8031C#79C8D13800C2FCFF
(1739920534.576047) can0 09F8041C#79C8C43CF3000000
(1739920534.577724) can0 15F8051C#202F7A11013BCBD4
(1739920534.578821) can0 15F8051C#2128A08CF6EA2974
(1739920534.579932) can0 15F8051C#22C7FE008ADC4923
(1739920534.580551) can0 15F8051C#2368A0EC00000000
(1739920534.581164) can0 15F8051C#240000000040000E
(1739920534.581768) can0 15F8051C#2550009600000000
(1739920534.583606) can0 15F8051C#260001A008F401FF
(1739920534.673535) can0 09F8021C#7AFC3CF3C201FFFF
(1739920534.674089) can0 09F8031C#7A14AE0500ADFFFF
(1739920534.674973) can0 09F8041C#7A14C43CF3000000
(1739920534.773521) can0 09F8021C#7AFC3CF3C201FFFF
(1739920534.774075) can0 09F8031C#7A285D0B005AFFFF
(1739920534.774968) can0 09F8041C#7A28C43CF3000000
(1739920534.873530) can0 09F8021C#7AFC3CF3C201FFFF
(1739920534.874088) can0 09F8031C#7A3D0B110007FFFF
(1739920534.874982) can0 09F8041C#7A3DC43CF3000000
(1739920534.974406) can0 09F8021C#7AFC3CF3C201FFFF
(1739920534.974952) can0 09F8031C#7A50BA1600B4FEFF
(1739920534.976291) can0 09F8041C#7A50C43CF3000000
(1739920535.073512) can0 09F8021C#7AFC3CF3C201FFFF
(1739920535.074071) can0 09F8031C#7A64681C0061FEFF
(1739920535.074955) can0 09F8041C#7A64C43CF3000000
(1739920535.173509) can0 09F8021C#7AFC3CF3C201FFFF
(1739920535.174068) can0 09F8031C#7A781722000EFEFF
(1739920535.175020) can0 09F8041C#7A78C43CF3000000
(1739920535.273851) can0 09F8021C#7AFC3CF3C201FFFF
(1739920535.274408) can0 09F8031C#7A8CC52700BBFDFF
(1739920535.275449) can0 09F8041C#7A8CC43CF3000000
(1739920535.374591) can0 09F8021C#7AFC3CF3C201FFFF
(1739920535.375148) can0 09F8031C#7AA1742D0068FDFF
(1739920535.376279) can0 09F8041C#7AA1C43CF3000000
(1739920535.473503) can0 09F8021C#7AFC3CF3C201FFFF
(1739920535.474064) can0 09F8031C#7AB423330015FDFF
(1739920535.474971) can0 09F8041C#7AB4C43CF3000000
(1739920535.573521) can0 09F8021C#7AFC3CF3C201FFFF
(1739920535.574064) can0 09F8031C#7AC8D13800C2FCFF
(1739920535.574935) can0 09F8041C#7AC8C43CF3000000
(1739920535.576067) can0 15F8051C#402F7B11014BF2D4
(1739920535.576660) can0 15F8051C#412840C40AFE8774
(1739920535.577759) can0 15F8051C#42C7FE003341EB1D
(1739920535.578866) can0 15F8051C#4368A0EC00000000
(1739920535.579981) can0 15F8051C#440000000040000E
(1739920535.581113) can0 15F8051C#4550009600000000
(1739920535.582263) can0 15F8051C#460001A008F401FF
(1739920535.673471) can0 09F8021C#7BFC3CF3C201FFFF
(1739920535.674028) can0 09F8031C#7B14AE0500ADFFFF
(1739920535.674931) can0 09F8041C#7B14C43CF3000000
(1739920535.774340) can0 09F8021C#7BFC3CF3C201FFFF
(1739920535.774890) can0 09F8031C#7B285D0B005AFFFF
(1739920535.775970) can0 09F8041C#7B28C43CF3000000
(1739920535.873476) can0 09F8021C#7BFC3CF3C201FFFF
(1739920535.874035) can0 09F8031C#7B3D0B110007FFFF
(1739920535.874925) can0 09F8041C#7B3DC43CF3000000
(1739920535.974017) can0 09F8021C#7BFC3CF3C201FFFF
(1739920535.974563) can0 09F8031C#7B50BA1600B4FEFF
(1739920535.975123) can0 09F8041C#7B50C43CF3000000
(1739920536.073462) can0 09F8021C#7BFC3CF3C201FFFF
(1739920536.074017) can0 09F8031C#7B64681C0061FEFF
(1739920536.074905) can0 09F8041C#7B64C43CF3000000
(1739920536.174343) can0 09F8021C#7BFC3CF3C201FFFF
(1739920536.174897) can0 09F8031C#7B781722000EFEFF
(1739920536.175952) can0 09F8041C#7B78C43CF3000000
(1739920536.273448) can0 09F8021C#7BFC3CF3C201FFFF
(1739920536.273998) can0 09F8031C#7B8CC52700BBFDFF
(1739920536.274899) can0 09F8041C#7B8CC43CF3000000
(1739920536.373436) can0 09F8021C#7BFC3CF3C201FFFF
(1739920536.374028) can0 09F8031C#7BA1742D0068FDFF
(1739920536.374917) can0 09F8041C#7BA1C43CF3000000
(1739920536.473441) can0 09F8021C#7BFC3CF3C201FFFF
(1739920536.473992) can0 09F8031C#7BB423330015FDFF
(1739920536.474884) can0 09F8041C#7BB4C43CF3000000
(1739920536.574318) can0 09F8021C#7BFC3CF3C201FFFF
(1739920536.574873) can0 09F8031C#7BC8D13800C2FCFF
(1739920536.575931) can0 09F8041C#7BC8C43CF3000000
(1739920536.577073) can0 15F8051C#602F7C11015B19D5
(1739920536.577625) can0 15F8051C#6128E0FB1E11E674
(1739920536.578195) can0 15F8051C#62C7FE00DEA58C18
(1739920536.578775) can0 15F8051C#6368A0EC00000000
(1739920536.579369) can0 15F8051C#640000000040000E
(1739920536.579947) can0 15F8051C#6550009600000000
(1739920536.580624) can0 15F8051C#660001A008F401FF
(1739920536.673442) can0 09F8021C#7CFC3CF3C201FFFF
(1739920536.674002) can0 09F8031C#7C14AE0500ADFFFF
(1739920536.674885) can0 09F8041C#7C14C43CF3000000
(1739920536.773433) can0 09F8021C#7CFC3CF3C201FFFF
(1739920536.773993) can0 09F8031C#7C285D0B005AFFFF
(1739920536.774879) can0 09F8041C#7C28C43CF3000000
(1739920536.873435) can0 09F8021C#7CFC3CF3C201FFFF
(1739920536.874015) can0 09F8031C#7C3D0B110007FFFF
(1739920536.874882) can0 09F8041C#7C3DC43CF3000000
(1739920536.974360) can0 09F8021C#7CFC3CF3C201FFFF
(1739920536.974907) can0 09F8031C#7C50BA1600B4FEFF
(1739920536.975923) can0 09F8041C#7C50C43CF3000000
(1739920537.073418) can0 09F8021C#7CFC3CF3C201FFFF
(1739920537.073976) can0 09F8031C#7C64681C0061FEFF
(1739920537.074868) can0 09F8041C#7C64C43CF3000000
(1739920537.173410) can0 09F8021C#7CFC3CF3C201FFFF
(1739920537.173973) can0 09F8031C#7C781722000EFEFF
(1739920537.174857) can0 09F8041C#7C78C43CF3000000
(1739920537.273411) can0 09F8021C#7CFC3CF3C201FFFF
(1739920537.273960) can0 09F8031C#7C8CC52700BBFDFF
(1739920537.274859) can0 09F8041C#7C8CC43CF3000000
(1739920537.374296) can0 09F8021C#7CFC3CF3C201FFFF
(1739920537.374856) can0 09F8031C#7CA1742D0068FDFF
(1739920537.375995) can0 09F8041C#7CA1C43CF3000000
(1739920537.473397) can0 09F8021C#7CFC3CF3C201FFFF
(1739920537.473956) can0 09F8031C#7CB423330015FDFF
(1739920537.474865) can0 09F8041C#7CB4C43CF3000000
(1739920537.573387) can0 09F8021C#7CFC3CF3C201FFFF
(1739920537.573942) can0 09F8031C#7CC8D13800C2FCFF
(1739920537.574838) can0 09F8041C#7CC8C43CF3000000
(1739920537.575975) can0 15F8051C#802F7D11016B40D5
(1739920537.576527) can0 15F8051C#8128903333244475
(1739920537.577102) can0 15F8051C#82C7FE00870A2E13
(1739920537.577687) can0 15F8051C#8368A0EC00000000
(1739920537.578275) can0 15F8051C#840000000040000E
(1739920537.578863) can0 15F8051C#8550009600000000
(1739920537.579444) can0 15F8051C#860001A008F401FF
(1739920537.673395) can0 09F8021C#7DFC3CF3C201FFFF
(1739920537.673949) can0 09F8031C#7D14AE0500ADFFFF
(1739920537.674841) can0 09F8041C#7D14C43CF3000000
(1739920537.774254) can0 09F8021C#7DFC3CF3C201FFFF
(1739920537.774808) can0 09F8031C#7D285D0B005AFFFF
(1739920537.775893) can0 09F8041C#7D28C43CF3000000
(1739920537.873409) can0 09F8021C#7DFC3CF3C201FFFF
(1739920537.873969) can0 09F8031C#7D3D0B110007FFFF
(1739920537.874832) can0 09F8041C#7D3DC43CF3000000
(1739920537.973374) can0 09F8021C#7DFC3CF3C201FFFF
(1739920537.973929) can0 09F8031C#7D50BA1600B4FEFF
(1739920537.975029) can0 09F8041C#7D50C43CF3000000
(1739920538.073372) can0 09F8021C#7DFC3CF3C201FFFF
(1739920538.073935) can0 09F8031C#7D64681C0061FEFF
(1739920538.075160) can0 09F8041C#7D64C43CF3000000
(1739920538.174246) can0 09F8021C#7DFC3CF3C201FFFF
(1739920538.174802) can0 09F8031C#7D781722000EFEFF
(1739920538.175870) can0 09F8041C#7D78C43CF3000000
(1739920538.273924) can0 09F8021C#7DFC3DF3C201FFFF
(1739920538.274480) can0 09F8031C#7D8CC52700BBFDFF
(1739920538.275048) can0 09F8041C#7D8CC43DF3000000
(1739920538.373679) can0 09F8021C#7DFC3EF3C201FFFF
(1739920538.374237) can0 09F8031C#7DA1742D0069FDFF
(1739920538.374810) can0 09F8041C#7DA1C43EF3000000
(1739920538.473375) can0 09F8021C#7DFC3FF3C201FFFF
(1739920538.473923) can0 09F8031C#7DB423330016FDFF
(1739920538.474816) can0 09F8041C#7DB4C43FF3000000
(1739920538.574251) can0 09F8021C#7DFC40F3C201FFFF
(1739920538.574808) can0 09F8031C#7DC8D13800C4FCFF
(1739920538.575850) can0 09F8041C#7DC8C440F3000000
(1739920538.576992) can0 15F8051C#C02F7E11017B67D5
(1739920538.578104) can0 15F8051C#C128E04B7137A275
(1739920538.579213) can0 15F8051C#C2C7FE00A1A8D10D
(1739920538.579788) can0 15F8051C#C368A0EC00000000
(1739920538.580477) can0 15F8051C#C40000000040000E
(1739920538.581040) can0 15F8051C#C550009600000000
(1739920538.581623) can0 15F8051C#C60001A008F401FF
(1739920538.673353) can0 09F8021C#7EFC42F3C201FFFF
(1739920538.673912) can0 09F8031C#7E14AE0500AEFFFF
(1739920538.675036) can0 09F8041C#7E14C442F3000000
(1739920538.773342) can0 09F8021C#7EFC43F3C201FFFF
(1739920538.773893) can0 09F8031C#7E285D0B005CFFFF
(1739920538.774785) can0 09F8041C#7E28C443F3000000
(1739920538.873343) can0 09F8021C#7EFC44F3C201FFFF
(1739920538.873903) can0 09F8031C#7E3D0B11000AFFFF
(1739920538.874783) can0 09F8041C#7E3DC444F3000000
(1739920538.974210) can0 09F8021C#7EFC44F3C201FFFF
(1739920538.974759) can0 09F8031C#7E50BA1600B8FEFF
(1739920538.975839) can0 09F8041C#7E50C444F3000000
(1739920539.073332) can0 09F8021C#7EFC44F3C201FFFF
(1739920539.073889) can0 09F8031C#7E64691C0066FEFF
(1739920539.074770) can0 09F8041C#7E64C444F3000000
(1739920539.173329) can0 09F8021C#7EFC44F3C201FFFF
(1739920539.173887) can0 09F8031C#7E7817220014FEFF
(1739920539.174770) can0 09F8041C#7E78C444F3000000
(1739920539.273368) can0 09F8021C#7EFC44F3C201FFFF
(1739920539.273924) can0 09F8031C#7E8CC62700C2FDFF
(1739920539.275012) can0 09F8041C#7E8CC444F3000000
(1739920539.374193) can0 09F8021C#7EFC43F3C201FFFF
(1739920539.374747) can0 09F8031C#7EA1752D0070FDFF
(1739920539.376200) can0 09F8041C#7EA1C443F3000000
(1739920539.473314) can0 09F8021C#7EFC43F3C201FFFF
(1739920539.473874) can0 09F8031C#7EB42333001EFDFF
(1739920539.474759) can0 09F8041C#7EB4C443F3000000
(1739920539.573308) can0 09F8021C#7EFC43F3C201FFFF
(1739920539.573859) can0 09F8031C#7EC8D23800CCFCFF
(1739920539.574747) can0 09F8041C#7EC8C443F3000000
(1739920539.575880) can0 15F8051C#E02F7F11018B8ED5
(1739920539.576445) can0 15F8051C#E128506AFE4B0076
(1739920539.577015) can0 15F8051C#E2C7FE0098708308
(1739920539.577601) can0 15F8051C#E368A0EC00000000
(1739920539.578188) can0 15F8051C#E40000000040000E
(1739920539.578978) can0 15F8051C#E550009600000000
(1739920539.579347) can0 15F8051C#E60001A008F401FF
(1739920539.673311) can0 09F8021C#7FFC43F3C201FFFF
(1739920539.673870) can0 09F8031C#7F14AE0500AEFFFF
(1739920539.674750) can0 09F8041C#7F14C443F3000000
(1739920539.774280) can0 09F8021C#7FFC43F3C201FFFF
(1739920539.774831) can0 09F8031C#7F285D0B005CFFFF
(1739920539.775880) can0 09F8041C#7F28C443F3000000
(1739920539.873316) can0 09F8021C#7FFC43F3C201FFFF
(1739920539.873866) can0 09F8031C#7F3D0C11000AFFFF
(1739920539.874739) can0 09F8041C#7F3DC443F3000000
(1739920539.973501) can0 09F8021C#7FFC43F3C201FFFF
(1739920539.974061) can0 09F8031C#7F50BA1600B8FEFF
(1739920539.974994) can0 09F8041C#7F50C443F3000000
(1739920540.073307) can0 09F8021C#7FFC43F3C201FFFF
(1739920540.073862) can0 09F8031C#7F64691C0066FEFF
(1739920540.074730) can0 09F8041C#7F64C443F3000000
(1739920540.174149) can0 09F8021C#7FFC42F3C201FFFF
(1739920540.174712) can0 09F8031C#7F7818220014FEFF
(1739920540.175780) can0 09F8041C#7F78C442F3000000
(1739920540.273304) can0 09F8021C#7FFC40F3C201FFFF
(1739920540.273856) can0 09F8031C#7F8CC62700C2FDFF
(1739920540.274729) can0 09F8041C#7F8CC440F3000000
(1739920540.373285) can0 09F8021C#7FFC3FF3C201FFFF
(1739920540.373839) can0 09F8031C#7FA1752D006FFDFF
(1739920540.374735) can0 09F8041C#7FA1C43FF3000000
(1739920540.473278) can0 09F8021C#7FFC3EF3C201FFFF
(1739920540.473826) can0 09F8031C#7FB42333001CFDFF
(1739920540.474710) can0 09F8041C#7FB4C43EF3000000
(1739920540.574146) can0 09F8021C#7FFC3DF3C201FFFF
(1739920540.574696) can0 09F8031C#7FC8D23800C9FCFF
(1739920540.575761) can0 09F8041C#7FC8C43DF3000000
(1739920540.576905) can0 15F8051C#002F8011019BB5D5
(1739920540.577473) can0 15F8051C#012830C737605E76
(1739920540.578053) can0 15F8051C#02C7FE00B0013003
(1739920540.578642) can0 15F8051C#0368A0EC00000000
(1739920540.579254) can0 15F8051C#040000000040000E
(1739920540.579824) can0 15F8051C#0550009600000000
(1739920540.580513) can0 15F8051C#060001A008F401FF
(1739920540.673259) can0 09F8021C#80FC3CF3C201FFFF
(1739920540.673830) can0 09F8031C#8014AE0500ADFFFF
(1739920540.674714) can0 09F8041C#8014C43CF3000000
(1739920540.773276) can0 09F8021C#80FC3AF3C201FFFF
(1739920540.773827) can0 09F8031C#80285D0B005AFFFF
(1739920540.774698) can0 09F8041C#8028C43AF3000000
(1739920540.873259) can0 09F8021C#80FC3AF3C201FFFF
(1739920540.873816) can0 09F8031C#803D0B110007FFFF
(1739920540.874945) can0 09F8041C#803DC43AF3000000
(1739920540.974114) can0 09F8021C#80FC3AF3C201FFFF
(1739920540.974669) can0 09F8031C#8050BA1600B3FEFF
(1739920540.975731) can0 09F8041C#8050C43AF3000000
(1739920541.073266) can0 09F8021C#80FC3AF3C201FFFF
(1739920541.073822) can0 09F8031C#8064681C0060FEFF
(1739920541.074688) can0 09F8041C#8064C43AF3000000
(1739920541.173357) can0 09F8021C#80FC3AF3C201FFFF
(1739920541.173834) can0 09F8031C#80781722000CFEFF
(1739920541.174929) can0 09F8041C#8078C43AF3000000
(1739920541.273681) can0 09F8021C#80FC3AF3C201FFFF
(1739920541.274241) can0 09F8031C#808CC62700B9FDFF
(1739920541.274801) can0 09F8041C#808CC43AF3000000
(1739920541.374700) can0 09F8021C#80FC3AF3C201FFFF
(1739920541.375829) can0 09F8031C#80A1742D0066FDFF
(1739920541.376389) can0 09F8041C#80A1C43AF3000000
(1739920541.473232) can0 09F8021C#80FC3AF3C201FFFF
(1739920541.473798) can0 09F8031C#80B423330012FDFF
(1739920541.475304) can0 09F8041C#80B4C43AF3000000
(1739920541.573214) can0 09F8021C#80FC3AF3C201FFFF
(1739920541.573786) can0 09F8031C#80C8D13800BFFCFF
(1739920541.574676) can0 09F8041C#80C8C43AF3000000
(1739920541.575798) can0 15F8051C#202F811101ABDCD5
(1739920541.576930) can0 15F8051C#2128A0DF7573BC76
(1739920541.577503) can0 15F8051C#22C7FE0014D8CBFD
(1739920541.578083) can0 15F8051C#2367A0EC00000000
(1739920541.578672) can0 15F8051C#240000000040000E
(1739920541.579807) can0 15F8051C#2550009600000000
(1739920541.580929) can0 15F8051C#260001A008F401FF
(1739920541.673232) can0 09F8021C#81FC3AF3C201FFFF
(1739920541.673800) can0 09F8031C#8114AE0500ADFFFF
(1739920541.674655) can0 09F8041C#8114C43AF3000000
(1739920541.774076) can0 09F8021C#81FC3AF3C201FFFF
(1739920541.774635) can0 09F8031C#81285D0B005AFFFF
(1739920541.775707) can0 09F8041C#8128C43AF3000000
(1739920541.873322) can0 09F8021C#81FC3AF3C201FFFF
(1739920541.873877) can0 09F8031C#813D0B110006FFFF
(1739920541.875000) can0 09F8041C#813DC43AF3000000
(1739920541.973959) can0 09F8021C#81FC3AF3C201FFFF
(1739920541.974523) can0 09F8031C#8150BA1600B3FEFF
(1739920541.975679) can0 09F8041C#8150C43AF3000000
(1739920542.073414) can0 09F8021C#81FC3AF3C201FFFF
(1739920542.073926) can0 09F8031C#8164681C0060FEFF
(1739920542.075062) can0 09F8041C#8164C43AF3000000
(1739920542.174092) can0 09F8021C#81FC3AF3C201FFFF
(1739920542.174652) can0 09F8031C#81781722000CFEFF
(1739920542.175777) can0 09F8041C#8178C43AF3000000
(1739920542.273217) can0 09F8021C#81FC3AF3C201FFFF
(1739920542.273767) can0 09F8031C#818CC52700B9FDFF
(1739920542.274908) can0 09F8041C#818CC43AF3000000
(1739920542.373205) can0 09F8021C#81FC3AF3C201FFFF
(1739920542.373760) can0 09F8031C#81A1742D0066FDFF
(1739920542.374888) can0 09F8041C#81A1C43AF3000000
(1739920542.473175) can0 09F8021C#81FC3AF3C201FFFF
(1739920542.473727) can0 09F8031C#81B423330012FDFF
(1739920542.474611) can0 09F8041C#81B4C43AF3000000
(1739920542.574045) can0 09F8021C#81FC3AF3C201FFFF
(1739920542.574605) can0 09F8031C#81C8D13800BFFCFF
(1739920542.575660) can0 09F8041C#81C8C43AF3000000
(1739920542.576817) can0 15F8051C#402F821101BB03D6
(1739920542.577938) can0 15F8051C#412840178A861A77
(1739920542.578505) can0 15F8051C#42C7FE0033D667F8
(1739920542.579082) can0 15F8051C#4367A0EC00000000
(1739920542.580218) can0 15F8051C#440000000040000E
(1739920542.581329) can0 15F8051C#4550009600000000
(1739920542.583260) can0 15F8051C#460001A008F401FF
(1739920542.673284) can0 09F8021C#82FC3AF3C201FFFF
(1739920542.673848) can0 09F8031C#8214AE0500ADFFFF
(1739920542.674855) can0 09F8041C#8214C43AF3000000
(1739920542.773190) can0 09F8021C#82FC3AF3C201FFFF
(1739920542.773745) can0 09F8031C#82285D0B005AFFFF
(1739920542.774596) can0 09F8041C#8228C43AF3000000
(1739920542.873613) can0 09F8021C#82FC3AF3C201FFFF
(1739920542.874172) can0 09F8031C#823D0B110006FFFF
(1739920542.874732) can0 09F8041C#823DC43AF3000000
(1739920542.974028) can0 09F8021C#82FC3AF3C201FFFF
(1739920542.974578) can0 09F8031C#8250BA1600B3FEFF
(1739920542.975643) can0 09F8041C#8250C43AF3000000
(1739920543.073153) can0 09F8021C#82FC3AF3C201FFFF
(1739920543.073731) can0 09F8031C#8264681C0060FEFF
(1739920543.074581) can0 09F8041C#8264C43AF3000000
(1739920543.173522) can0 09F8021C#82FC3AF3C201FFFF
(1739920543.174083) can0 09F8031C#82781722000CFEFF
(1739920543.174648) can0 09F8041C#8278C43AF3000000
(1739920543.273166) can0 09F8021C#82FC3AF3C201FFFF
(1739920543.273699) can0 09F8031C#828CC52700B9FDFF
(1739920543.274589) can0 09F8041C#828CC43AF3000000
(1739920543.374065) can0 09F8021C#82FC3AF3C201FFFF
(1739920543.374621) can0 09F8031C#82A1742D0066FDFF
(1739920543.376041) can0 09F8041C#82A1C43AF3000000
(1739920543.473144) can0 09F8021C#82FC3AF3C201FFFF
(1739920543.473703) can0 09F8031C#82B423330012FDFF
(1739920543.474572) can0 09F8041C#82B4C43AF3000000
(1739920543.573115) can0 09F8021C#82FC3AF3C201FFFF
(1739920543.573676) can0 09F8031C#82C8D13800BFFCFF
(1739920543.574557) can0 09F8041C#82C8C43AF3000000
(1739920543.575701) can0 15F8051C#A02F831101CB2AD6
(1739920543.576773) can0 15F8051C#A128F04E9E997877
(1739920543.577886) can0 15F8051C#A2C7FE00E4B103F3
(1739920543.580717) can0 15F8051C#A367A0EC00000000
(1739920543.581845) can0 15F8051C#A40000000040000E
(1739920543.583549) can0 15F8051C#A550009600000000
(1739920543.584150) can0 15F8051C#A60001A008F401FF
(1739920543.673128) can0 09F8021C#83FC3AF3C201FFFF
(1739920543.673675) can0 09F8031C#8314AE0500ADFFFF
(1739920543.674558) can0 09F8041C#8314C43AF3000000
(1739920543.773993) can0 09F8021C#83FC3AF3C201FFFF
(1739920543.774545) can0 09F8031C#83285D0B005AFFFF
(1739920543.775632) can0 09F8041C#8328C43AF3000000
(1739920543.873130) can0 09F8021C#83FC3AF3C201FFFF
(1739920543.873688) can0 09F8031C#833D0B110006FFFF
(1739920543.874822) can0 09F8041C#833DC43AF3000000
(1739920543.973127) can0 09F8021C#83FC3AF3C201FFFF
(1739920543.973682) can0 09F8031C#8350BA1600B3FEFF
(1739920543.974798) can0 09F8041C#8350C43AF3000000
(1739920544.073103) can0 09F8021C#83FC3AF3C201FFFF
(1739920544.073669) can0 09F8031C#8364681C0060FEFF
(1739920544.074550) can0 09F8041C#8364C43AF3000000
(1739920544.173965) can0 09F8021C#83FC3CF3C201FFFF
(1739920544.174528) can0 09F8031C#83781722000DFEFF
(1739920544.175588) can0 09F8041C#8378C43CF3000000
(1739920544.273103) can0 09F8021C#83FC3DF3C201FFFF
(1739920544.274073) can0 09F8031C#838CC52700BAFDFF
(1739920544.274641) can0 09F8041C#838CC43DF3000000
(1739920544.373098) can0 09F8021C#83FC3EF3C201FFFF
(1739920544.373647) can0 09F8031C#83A1742D0067FDFF
(1739920544.374784) can0 09F8041C#83A1C43EF3000000
(1739920544.473095) can0 09F8021C#83FC3FF3C201FFFF
(1739920544.473652) can0 09F8031C#83B423330014FDFF
(1739920544.474786) can0 09F8041C#83B4C43FF3000000
(1739920544.574396) can0 09F8021C#83FC41F3C201FFFF
(1739920544.574959) can0 09F8031C#83C8D13800C2FCFF
(1739920544.576023) can0 09F8041C#83C8C441F3000000
(1739920544.577160) can0 15F8051C#C02F841101DB51D6
(1739920544.578905) can0 15F8051C#C1289086B2ACD677
(1739920544.580005) can0 15F8051C#C2C7FE0019C7A4ED
(1739920544.581114) can0 15F8051C#C367A0EC00000000
(1739920544.583152) can0 15F8051C#C40000000040000E
(1739920544.583735) can0 15F8051C#C550009600000000
(1739920544.584318) can0 15F8051C#C60001A008F401FF
(1739920544.673565) can0 09F8021C#84FC42F3C201FFFF
(1739920544.674121) can0 09F8031C#8414AE0500AEFFFF
(1739920544.674691) can0 09F8041C#8414C442F3000000
(1739920544.773058) can0 09F8021C#84FC43F3C201FFFF
(1739920544.773610) can0 09F8031C#84285D0B005CFFFF
(1739920544.774502) can0 09F8041C#8428C443F3000000
(1739920544.873058) can0 09F8021C#84FC43F3C201FFFF
(1739920544.873620) can0 09F8031C#843D0C11000AFFFF
(1739920544.874500) can0 09F8041C#843DC443F3000000
(1739920544.973959) can0 09F8021C#84FC43F3C201FFFF
(1739920544.974510) can0 09F8031C#8450BA1600B8FEFF
(1739920544.975743) can0 09F8041C#8450C443F3000000
(1739920545.073058) can0 09F8021C#84FC42F3C201FFFF
(1739920545.073613) can0 09F8031C#8464691C0066FEFF
(1739920545.074487) can0 09F8041C#8464C442F3000000
(1739920545.173031) can0 09F8021C#84FC42F3C201FFFF
(1739920545.173595) can0 09F8031C#847818220014FEFF
(1739920545.174482) can0 09F8041C#8478C442F3000000
(1739920545.273024) can0 09F8021C#84FC42F3C201FFFF
(1739920545.273996) can0 09F8031C#848CC62700C1FDFF
(1739920545.274551) can0 09F8041C#848CC442F3000000
(1739920545.373904) can0 09F8021C#84FC42F3C201FFFF
(1739920545.374459) can0 09F8031C#84A1752D006FFDFF
(1739920545.375603) can0 09F8041C#84A1C442F3000000
(1739920545.473447) can0 09F8021C#84FC42F3C201FFFF
(1739920545.474003) can0 09F8031C#84B42433001DFDFF
(1739920545.474569) can0 09F8041C#84B4C442F3000000
(1739920545.573025) can0 09F8021C#84FC42F3C201FFFF
(1739920545.573581) can0 09F8031C#84C8D23800CBFCFF
(1739920545.574500) can0 09F8041C#84C8C442F3000000
(1739920545.575597) can0 15F8051C#E02F851101EB78D6
(1739920545.576157) can0 15F8051C#E128B08569C13478
(1739920545.576731) can0 15F8051C#E2C7FE00A72054E8
(1739920545.577305) can0 15F8051C#E367A0EC00000000
(1739920545.577891) can0 15F8051C#E40000000040000E
(1739920545.578471) can0 15F8051C#E550009600000000
(1739920545.579043) can0 15F8051C#E60001A008F401FF
(1739920545.673455) can0 09F8021C#85FC42F3C201FFFF
(1739920545.674008) can0 09F8031C#8514AE0500AEFFFF
(1739920545.674563) can0 09F8041C#8514C442F3000000
(1739920545.773893) can0 09F8021C#85FC42F3C201FFFF
(1739920545.774448) can0 09F8031C#85285D0B005CFFFF
(1739920545.775568) can0 09F8041C#8528C442F3000000
(1739920545.873003) can0 09F8021C#85FC42F3C201FFFF
(1739920545.873564) can0 09F8031C#853D0C11000AFFFF
(1739920545.874485) can0 09F8041C#853DC442F3000000
(1739920545.973053) can0 09F8021C#85FC42F3C201FFFF
(1739920545.973609) can0 09F8031C#8550BA1600B8FEFF
(1739920545.974728) can0 09F8041C#8550C442F3000000
(1739920546.073197) can0 09F8021C#85FC42F3C201FFFF
(1739920546.073750) can0 09F8031C#8564691C0066FEFF
(1739920546.074877) can0 09F8041C#8564C442F3000000
(1739920546.173890) can0 09F8021C#85FC42F3C201FFFF
(1739920546.174509) can0 09F8031C#857818220013FEFF
(1739920546.175516) can0 09F8041C#8578C442F3000000
(1739920546.273033) can0 09F8021C#85FC41F3C201FFFF
(1739920546.273585) can0 09F8031C#858CC62700C1FDFF
(1739920546.274707) can0 09F8041C#858CC441F3000000
(1739920546.373025) can0 09F8021C#85FC3FF3C201FFFF
(1739920546.373557) can0 09F8031C#85A1752D006EFDFF
(1739920546.374542) can0 09F8041C#85A1C43FF3000000
(1739920546.473023) can0 09F8021C#85FC3EF3C201FFFF
(1739920546.473579) can0 09F8031C#85B42333001BFDFF
(1739920546.474705) can0 09F8041C#85B4C43EF3000000
(1739920546.573840) can0 09F8021C#85FC3DF3C201FFFF
(1739920546.574394) can0 09F8031C#85C8D23800C8FCFF
(1739920546.575475) can0 09F8041C#85C8C43DF3000000
(1739920546.576617) can0 15F8051C#002F861101FB9FD6
(1739920546.577175) can0 15F8051C#012850C3CCD59278
(1739920546.577759) can0 15F8051C#02C7FE00F2A0FFE2
(1739920546.578347) can0 15F8051C#0367A0EC00000000
(1739920546.579491) can0 15F8051C#040000000040000E
(1739920546.580619) can0 15F8051C#0550009600000000
(1739920546.581726) can0 15F8051C#060001A008F401FF
(1739920546.673417) can0 09F8021C#86FC3CF3C201FFFF
(1739920546.673982) can0 09F8031C#8614AE0500ADFFFF
(1739920546.674538) can0 09F8041C#8614C43CF3000000
(1739920546.772963) can0 09F8021C#86FC3AF3C201FFFF
(1739920546.773514) can0 09F8031C#86285D0B005AFFFF
(1739920546.774415) can0 09F8041C#8628C43AF3000000
(1739920546.872979) can0 09F8021C#86FC3AF3C201FFFF
(1739920546.873538) can0 09F8031C#863D0B110007FFFF
(1739920546.874402) can0 09F8041C#863DC43AF3000000
(1739920546.974157) can0 09F8021C#86FC3AF3C201FFFF
(1739920546.974705) can0 09F8031C#8650BA1600B3FEFF
(1739920546.975817) can0 09F8041C#8650C43AF3000000
(1739920547.072952) can0 09F8021C#86FC3AF3C201FFFF
(1739920547.073510) can0 09F8031C#8664681C0060FEFF
(1739920547.074395) can0 09F8041C#8664C43AF3000000
